(1617533798.038462) can0 20000080#0000000000000000
(1617533798.040511) can0 20000080#0000000000000000
(1617533802.801940) can0 18FFF4E5#0000A00F0000018C
(1617533802.806848) can0 18FEF4E5#68103C0F00000000
(1617533802.852466) can0 18FFF4E5#0000A00F0000018C
(1617533802.856951) can0 18FEF4E5#68103C0F00000000
(1617533802.902100) can0 18FFF4E5#0000A00F0000018C
(1617533802.907014) can0 18FEF4E5#68103C0F00000000
(1617533802.952491) can0 18FFF4E5#0000A00F0000018C
(1617533802.957031) can0 18FEF4E5#68103C0F00000000
(1617533803.002087) can0 18FFF4E5#0000A00F0000018C
(1617533803.006996) can0 18FEF4E5#68103C0F00000000
(1617533803.052542) can0 18FFF4E5#0000A00F0000018C
(1617533803.057043) can0 18FEF4E5#68103C0F00000000
(1617533803.102177) can0 18FFF4E5#0000A00F0000018C
(1617533803.107084) can0 18FEF4E5#68103C0F00000000
(1617533803.152633) can0 18FFF4E5#0000A00F0000018C
(1617533803.157125) can0 18FEF4E5#68103C0F00000000
(1617533803.202475) can0 18FFF4E5#0000A00F0000018C
(1617533803.207173) can0 18FEF4E5#68103C0F00000000
(1617533803.252839) can0 18FFF4E5#0000A00F0000018C
(1617533803.257217) can0 18FEF4E5#68103C0F00000000
(1617533803.302352) can0 18FFF4E5#0000A00F0000018C
(1617533803.307255) can0 18FEF4E5#68103C0F00000000
(1617533803.352927) can0 18FFF4E5#0000A00F0000018C
(1617533803.357304) can0 18FEF4E5#68103C0F00000000
(1617533803.402438) can0 18FFF4E5#0000A00F0000018C
(1617533803.407348) can0 18FEF4E5#68103C0F00000000
(1617533803.453013) can0 18FFF4E5#0000A00F0000018C
(1617533803.457395) can0 18FEF4E5#68103C0F00000000
(1617533803.502533) can0 18FFF4E5#0000A00F0000018C
(1617533803.507435) can0 18FEF4E5#68103C0F00000000
(1617533803.553035) can0 18FFF4E5#0000A00F0000018C
(1617533803.557483) can0 18FEF4E5#68103C0F00000000
(1617533803.602618) can0 18FFF4E5#0000A00F0000018C
(1617533803.607524) can0 18FEF4E5#68103C0F00000000
(1617533803.653418) can0 18FFF4E5#0000A00F0000018C
(1617533803.657609) can0 18FEF4E5#68103C0F00000000
(1617533803.702797) can0 18FFF4E5#0000A00F0000018C
(1617533803.707843) can0 18FEF4E5#68103C0F00000000
(1617533803.753335) can0 18FFF4E5#0000A00F0000018C
(1617533803.757654) can0 18FEF4E5#68103C0F00000000
(1617533803.802790) can0 18FFF4E5#0000A00F0000018C
(1617533803.807709) can0 18FEF4E5#68103C0F00000000
(1617533803.853308) can0 18FFF4E5#0000A00F0000018C
(1617533803.857743) can0 18FEF4E5#68103C0F00000000
(1617533803.902882) can0 18FFF4E5#0000A00F0000018C
(1617533803.907791) can0 18FEF4E5#68103C0F00000000
(1617533803.953392) can0 18FFF4E5#0000A00F0000018C
(1617533803.957839) can0 18FEF4E5#68103C0F00000000
(1617533804.002968) can0 18FFF4E5#0000A00F0000018C
(1617533804.007875) can0 18FEF4E5#68103C0F00000000
(1617533804.053474) can0 18FFF4E5#0000A00F0000018C
(1617533804.057925) can0 18FEF4E5#68103C0F00000000
(1617533804.103284) can0 18FFF4E5#0000A00F0000018C
(1617533804.107966) can0 18FEF4E5#68103C0F00000000
(1617533804.153556) can0 18FFF4E5#0000A00F0000018C
(1617533804.158011) can0 18FEF4E5#68103C0F00000000
(1617533804.203159) can0 18FFF4E5#0000A00F0000018C
(1617533804.208053) can0 18FEF4E5#68103C0F00000000
(1617533804.253648) can0 18FFF4E5#0000A00F0000018C
(1617533804.258095) can0 18FEF4E5#68103C0F00000000
(1617533804.303231) can0 18FFF4E5#0000A00F0000018C
(1617533804.308146) can0 18FEF4E5#68103C0F00000000
(1617533804.353745) can0 18FFF4E5#0000A00F0000018C
(1617533804.358187) can0 18FEF4E5#68103C0F00000000
(1617533804.403315) can0 18FFF4E5#0000A00F0000018C
(1617533804.408243) can0 18FEF4E5#68103C0F00000000
(1617533804.453920) can0 18FFF4E5#0000A00F0000018C
(1617533804.458344) can0 18FEF4E5#68103C0F00000000
(1617533804.503561) can0 18FFF4E5#0000A00F0000018C
(1617533804.508519) can0 18FEF4E5#68103C0F00000000
(1617533804.554089) can0 18FFF4E5#0000A00F0000018C
(1617533804.558382) can0 18FEF4E5#68103C0F00000000
(1617533804.603504) can0 18FFF4E5#0000A00F0000018C
(1617533804.608420) can0 18FEF4E5#68103C0F00000000
(1617533804.654000) can0 18FFF4E5#0000A00F0000018C
(1617533804.658451) can0 18FEF4E5#68103C0F00000000
(1617533804.703596) can0 18FFF4E5#0000A00F0000018C
(1617533804.708492) can0 18FEF4E5#68103C0F00000000
(1617533804.754097) can0 18FFF4E5#0000A00F0000018C
(1617533804.758542) can0 18FEF4E5#68103C0F00000000
(1617533804.803770) can0 18FFF4E5#0000A00F0000018C
(1617533804.808593) can0 18FEF4E5#68103C0F00000000
(1617533804.854186) can0 18FFF4E5#0000A00F0000018C
(1617533804.858629) can0 18FEF4E5#68103C0F00000000
(1617533804.903787) can0 18FFF4E5#0000A00F0000018C
(1617533804.908677) can0 18FEF4E5#68103C0F00000000
(1617533804.954277) can0 18FFF4E5#0000A00F0000018C
(1617533804.958716) can0 18FEF4E5#68103C0F00000000
(1617533805.004098) can0 18FFF4E5#0000A00F0000018C
(1617533805.008760) can0 18FEF4E5#68103C0F00000000
(1617533805.054367) can0 18FFF4E5#0000A00F0000018C
(1617533805.058804) can0 18FEF4E5#68103C0F00000000
(1617533805.103997) can0 18FFF4E5#0000A00F0000018C
(1617533805.108980) can0 18FEF4E5#68103C0F00000000
(1617533805.154451) can0 18FFF4E5#0000A00F0000018C
(1617533805.158892) can0 18FEF4E5#68103C0F00000000
(1617533805.204033) can0 18FFF4E5#0000A00F0000018C
(1617533805.208946) can0 18FEF4E5#68103C0F00000000
(1617533805.254586) can0 18FFF4E5#0000A00F0000018C
(1617533805.259018) can0 18FEF4E5#68103C0F00000000
(1617533805.304194) can0 18FFF4E5#0000A00F0000018C
(1617533805.309104) can0 18FEF4E5#68103C0F00000000
(1617533805.354782) can0 18FFF4E5#00009E0F0000018C
(1617533805.359067) can0 18FEF4E5#68103C0F00000000
(1617533805.404279) can0 18FFF4E5#00009E0F0000018C
(1617533805.409162) can0 18FEF4E5#68103C0F00000000
(1617533805.455014) can0 18FFF4E5#00009E0F0000018C
(1617533805.459158) can0 18FEF4E5#68103C0F00000000
(1617533805.504313) can0 18FFF4E5#00009E0F0000018C
(1617533805.509206) can0 18FEF4E5#68103C0F00000000
(1617533805.554823) can0 18FFF4E5#00009E0F0000018C
(1617533805.559248) can0 18FEF4E5#68103C0F00000000
(1617533805.604437) can0 18FFF4E5#54009E0F0000018C
(1617533805.609385) can0 18FEF4E5#68103C0F00000000
(1617533805.654951) can0 18FFF4E5#08019E0F0000018C
(1617533805.659339) can0 18FEF4E5#68103C0F00000000
(1617533805.704615) can0 18FFF4E5#08019E0F0000018C
(1617533805.709385) can0 18FEF4E5#68103C0F00000000
(1617533805.755009) can0 18FFF4E5#AE019E0F0000018C
(1617533805.759426) can0 18FEF4E5#68103C0F00000000
(1617533805.804575) can0 18FFF4E5#4A029E0F0000018C
(1617533805.809473) can0 18FEF4E5#68103C0F00000000
(1617533805.855114) can0 18FFF4E5#4A029E0F0000018C
(1617533805.859512) can0 18FEF4E5#68103C0F00000000
(1617533805.904877) can0 18FFF4E5#DA029E0F0000018C
(1617533805.909558) can0 18FEF4E5#68103C0F00000000
(1617533805.955203) can0 18FFF4E5#61039E0F0000018C
(1617533805.959609) can0 18FEF4E5#68103C0F00000000
(1617533806.004740) can0 18FFF4E5#61039E0F0000018C
(1617533806.009648) can0 18FEF4E5#68103C0F00000000
(1617533806.055306) can0 18FFF4E5#DF039E0F0000018C
(1617533806.059736) can0 18FEF4E5#68103C0F00000000
(1617533806.104935) can0 18FFF4E5#57049E0F0000018C
(1617533806.109811) can0 18FEF4E5#68103C0F00000000
(1617533806.155454) can0 18FFF4E5#57049E0F0000018C
(1617533806.159924) can0 18FEF4E5#68103C0F00000000
(1617533806.204951) can0 18FFF4E5#C6049E0F0000018C
(1617533806.209828) can0 18FEF4E5#68103C0F00000000
(1617533806.255457) can0 18FFF4E5#2F059E0F0000018C
(1617533806.259869) can0 18FEF4E5#68103C0F00000000
(1617533806.305021) can0 18FFF4E5#90059E0F0000018C
(1617533806.309912) can0 18FEF4E5#68103C0F00000000
(1617533806.355608) can0 18FFF4E5#90059E0F0000018C
(1617533806.359961) can0 18FEF4E5#68103C0F00000000
(1617533806.405113) can0 18FFF4E5#E8059E0F0000018C
(1617533806.410004) can0 18FEF4E5#68103C0F00000000
(1617533806.455648) can0 18FFF4E5#3E069E0F0000018C
(1617533806.460046) can0 18FEF4E5#68103C0F00000000
(1617533806.505221) can0 18FFF4E5#3E069E0F0000018C
(1617533806.510089) can0 18FEF4E5#68103C0F00000000
(1617533806.555732) can0 18FFF4E5#89069E0F0000018C
(1617533806.560165) can0 18FEF4E5#68103C0F00000000
(1617533806.605281) can0 18FFF4E5#D2069E0F0000018C
(1617533806.610205) can0 18FEF4E5#68103C0F00000000
(1617533806.655848) can0 18FFF4E5#D2069E0F0000018C
(1617533806.660221) can0 18FEF4E5#68103C0F00000000
(1617533806.705352) can0 18FFF4E5#14079E0F0000018C
(1617533806.710263) can0 18FEF4E5#68103C0F00000000
(1617533806.755924) can0 18FFF4E5#53079E0F0000018C
(1617533806.760345) can0 18FEF4E5#68103C0F00000000
(1617533806.805647) can0 18FFF4E5#8B079E0F0000018C
(1617533806.810353) can0 18FEF4E5#68103C0F00000000
(1617533806.856010) can0 18FFF4E5#8B079E0F0000018C
(1617533806.860409) can0 18FEF4E5#68103C0F00000000
(1617533806.905714) can0 18FFF4E5#BE079E0F0000018C
(1617533806.910813) can0 18FEF4E5#68103C0F00000000
(1617533806.956205) can0 18FFF4E5#ED079E0F0000018C
(1617533806.960577) can0 18FEF4E5#68103C0F00000000
(1617533807.005622) can0 18FFF4E5#ED079E0F0000018C
(1617533807.010538) can0 18FEF4E5#68103C0F00000000
(1617533807.056178) can0 18FFF4E5#1B089E0F0000018C
(1617533807.060579) can0 18FEF4E5#68103C0F00000000
(1617533807.105711) can0 18FFF4E5#44089E0F0000018C
(1617533807.110619) can0 18FEF4E5#68103C0F00000000
(1617533807.156267) can0 18FFF4E5#44089E0F0000018C
(1617533807.160665) can0 18FEF4E5#68103C0F00000000
(1617533807.205794) can0 18FFF4E5#69089E0F0000018C
(1617533807.210706) can0 18FEF4E5#68103C0F00000000
(1617533807.256552) can0 18FFF4E5#8C089E0F0000018C
(1617533807.260752) can0 18FEF4E5#68103C0F00000000
(1617533807.305880) can0 18FFF4E5#8C089E0F0000018C
(1617533807.310794) can0 18FEF4E5#68103C0F00000000
(1617533807.356445) can0 18FFF4E5#AD089E0F0000018C
(1617533807.360840) can0 18FEF4E5#68103C0F00000000
(1617533807.405971) can0 18FFF4E5#C9089E0F0000018C
(1617533807.410885) can0 18FEF4E5#68103C0F00000000
(1617533807.456536) can0 18FFF4E5#E4089E0F0000018C
(1617533807.460925) can0 18FEF4E5#68103C0F00000000
(1617533807.506060) can0 18FFF4E5#E4089E0F0000018C
(1617533807.510976) can0 18FEF4E5#68103C0F00000000
(1617533807.556620) can0 18FFF4E5#FB089E0F0000018C
(1617533807.561018) can0 18FEF4E5#68103C0F00000000
(1617533807.606151) can0 18FFF4E5#11099E0F0000018C
(1617533807.611060) can0 18FEF4E5#68103C0F01000000
(1617533807.656713) can0 18FFF4E5#11099E0F0000018C
(1617533807.661101) can0 18FEF4E5#68103C0F01000000
(1617533807.706635) can0 18FFF4E5#29099E0F0000018C
(1617533807.711187) can0 18FEF4E5#68103C0F01000000
(1617533807.756902) can0 18FFF4E5#3A099E0F0000018C
(1617533807.761279) can0 18FEF4E5#68103C0F01000000
(1617533807.806321) can0 18FFF4E5#3A099E0F1202018C
(1617533807.811233) can0 18FEF4E5#68103C0F01000000
(1617533807.856876) can0 18FFF4E5#4C099E0F1202018C
(1617533807.861277) can0 18FEF4E5#68103C0F01000000
(1617533807.906403) can0 18FFF4E5#5D099E0F1202018C
(1617533807.911322) can0 18FEF4E5#68103C0F01000000
(1617533807.956961) can0 18FFF4E5#5D099E0F1202018C
(1617533807.961363) can0 18FEF4E5#68103C0F01000000
(1617533808.006492) can0 18FFF4E5#6C099E0F1202018C
(1617533808.011413) can0 18FEF4E5#68103C0F01000000
(1617533808.057048) can0 18FFF4E5#77099E0F1202018C
(1617533808.061456) can0 18FEF4E5#68103C0F01000000
(1617533808.106582) can0 18FFF4E5#85099E0F1202018C
(1617533808.111500) can0 18FEF4E5#68103C0F01000000
(1617533808.157196) can0 18FFF4E5#85099E0F1202018C
(1617533808.161543) can0 18FEF4E5#68103C0F01000000
(1617533808.206670) can0 18FFF4E5#92099E0F1202018C
(1617533808.211587) can0 18FEF4E5#68103C0F01000000
(1617533808.257231) can0 18FFF4E5#9C099E0F1202018C
(1617533808.261633) can0 18FEF4E5#68103C0F01000000
(1617533808.306761) can0 18FFF4E5#9C099E0F1202018C
(1617533808.311690) can0 18FEF4E5#68103C0F01000000
(1617533808.357325) can0 18FFF4E5#A5099E0F1202018C
(1617533808.361732) can0 18FEF4E5#68103C0F01000000
(1617533808.406842) can0 18FFF4E5#B0099E0F1202018C
(1617533808.411786) can0 18FEF4E5#68103C0F01000000
(1617533808.457417) can0 18FFF4E5#B0099E0F1202018C
(1617533808.461823) can0 18FEF4E5#68103C0F01000000
(1617533808.506998) can0 18FFF4E5#B7099E0F1202018C
(1617533808.511920) can0 18FEF4E5#68103C0F01000000
(1617533808.557587) can0 18FFF4E5#BD099E0F1202018C
(1617533808.562013) can0 18FEF4E5#68103C0F01000000
(1617533808.607224) can0 18FFF4E5#C2099E0F1202018C
(1617533808.611940) can0 18FEF4E5#68103C0F01000000
(1617533808.657591) can0 18FFF4E5#C2099E0F1202018C
(1617533808.661987) can0 18FEF4E5#68103C0F01000000
(1617533808.707108) can0 18FFF4E5#C8099E0F1202018C
(1617533808.712028) can0 18FEF4E5#68103C0F01000000
(1617533808.757676) can0 18FFF4E5#CF099E0F1202018C
(1617533808.762070) can0 18FEF4E5#68103C0F01000000
(1617533808.807226) can0 18FFF4E5#CF099E0F1202018C
(1617533808.812120) can0 18FEF4E5#68103C0F01000000
(1617533808.857815) can0 18FFF4E5#D1099E0F1202018C
(1617533808.862161) can0 18FEF4E5#68103C0F01000000
(1617533808.907284) can0 18FFF4E5#D9099E0F1202018C
(1617533808.912203) can0 18FEF4E5#68103C0F01000000
(1617533808.957843) can0 18FFF4E5#D9099E0F1202018C
(1617533808.962249) can0 18FEF4E5#68103C0F01000000
(1617533809.007382) can0 18FFF4E5#DC099E0F1202018C
(1617533809.012295) can0 18FEF4E5#68103C0F01000000
(1617533809.058124) can0 18FFF4E5#E2099E0F1202018C
(1617533809.062340) can0 18FEF4E5#68103C0F01000000
(1617533809.107477) can0 18FFF4E5#E2099E0F1202018C
(1617533809.112382) can0 18FEF4E5#68103C0F01000000
(1617533809.158011) can0 18FFF4E5#E6099E0F1202018C
(1617533809.162427) can0 18FEF4E5#68103C0F01000000
(1617533809.207553) can0 18FFF4E5#E7099E0F1202018C
(1617533809.212467) can0 18FEF4E5#68103C0F01000000
(1617533809.258110) can0 18FFF4E5#ED099E0F1202018C
(1617533809.262506) can0 18FEF4E5#68103C0F01000000
(1617533809.307746) can0 18FFF4E5#ED099E0F1202018C
(1617533809.312626) can0 18FEF4E5#68103C0F01000000
(1617533809.358297) can0 18FFF4E5#ED099E0F1202018C
(1617533809.362664) can0 18FEF4E5#68103C0F01000000
(1617533809.407853) can0 18FFF4E5#F1099E0F1202018C
(1617533809.412656) can0 18FEF4E5#68103C0F01000000
(1617533809.458281) can0 18FFF4E5#F1099E0F1202018C
(1617533809.462688) can0 18FEF4E5#68103C0F01000000
(1617533809.508155) can0 18FFF4E5#F4099E0F1202018C
(1617533809.512741) can0 18FEF4E5#68103C0F01000000
(1617533809.558381) can0 18FFF4E5#F8099E0F1202018C
(1617533809.562781) can0 18FEF4E5#68103C0F01000000
(1617533809.607921) can0 18FFF4E5#F8099E0F1202018C
(1617533809.612822) can0 18FEF4E5#68103C0F01000000
(1617533809.658467) can0 18FFF4E5#F8099E0F1202018C
(1617533809.662862) can0 18FEF4E5#68103C0F01000000
(1617533809.708016) can0 18FFF4E5#F8099E0F1202018C
(1617533809.712912) can0 18FEF4E5#68103C0F01000000
(1617533809.758559) can0 18FFF4E5#F8099E0F1202018C
(1617533809.762959) can0 18FEF4E5#68103C0F01000000
(1617533809.808088) can0 18FFF4E5#FA099E0F1202018C
(1617533809.812999) can0 18FEF4E5#68103C0F01000000
(1617533809.858639) can0 18FFF4E5#FC099E0F1202018C
(1617533809.863044) can0 18FEF4E5#68103C0F01000000
(1617533809.908189) can0 18FFF4E5#000A9E0F1202018C
(1617533809.913087) can0 18FEF4E5#68103C0F01000000
(1617533809.958788) can0 18FFF4E5#000A9E0F1202018C
(1617533809.963128) can0 18FEF4E5#68103C0F01000000
(1617533810.008272) can0 18FFF4E5#010A9E0F1202018C
(1617533810.013173) can0 18FEF4E5#68103C0F01000000
(1617533810.058821) can0 18FFF4E5#010A9E0F1202018C
(1617533810.063224) can0 18FEF4E5#68103C0F01000000
(1617533810.108451) can0 18FFF4E5#010A9E0F1202018C
(1617533810.113383) can0 18FEF4E5#68103C0F01000000
(1617533810.159200) can0 18FFF4E5#010A9E0F1202018C
(1617533810.163863) can0 18FEF4E5#68103C0F01000000
(1617533810.208483) can0 18FFF4E5#030A9E0F1202018C
(1617533810.213502) can0 18FEF4E5#68103C0F01000000
(1617533810.258995) can0 18FFF4E5#030A9E0F1202018C
(1617533810.263395) can0 18FEF4E5#68103C0F01000000
(1617533810.308530) can0 18FFF4E5#030A9E0F1202018C
(1617533810.313438) can0 18FEF4E5#68103C0F01000000
(1617533810.359116) can0 18FFF4E5#050A9E0F1202018C
(1617533810.363488) can0 18FEF4E5#68103C0F01000000
(1617533810.408809) can0 18FFF4E5#050A9E0F1202018C
(1617533810.413523) can0 18FEF4E5#68103C0F01000000
(1617533810.459165) can0 18FFF4E5#050A9E0F1202018C
(1617533810.463571) can0 18FEF4E5#68103C0F01000000
(1617533810.508714) can0 18FFF4E5#050A9E0F1202018C
(1617533810.513618) can0 18FEF4E5#68103C0F01000000
(1617533810.559258) can0 18FFF4E5#090A9E0F1202018C
(1617533810.563665) can0 18FEF4E5#68103C0F01000000
(1617533810.608799) can0 18FFF4E5#090A9E0F1202018C
(1617533810.613716) can0 18FEF4E5#68103C0F01000000
(1617533810.659348) can0 18FFF4E5#090A9E0F1202018C
(1617533810.663747) can0 18FEF4E5#68103C0F01000000
(1617533810.708895) can0 18FFF4E5#090A9E0F1202018C
(1617533810.713792) can0 18FEF4E5#68103C0F01000000
(1617533810.759434) can0 18FFF4E5#090A9E0F1202018C
(1617533810.763842) can0 18FEF4E5#68103C0F01000000
(1617533810.809004) can0 18FFF4E5#090A9E0F1202018C
(1617533810.813882) can0 18FEF4E5#68103C0F01000000
(1617533810.859712) can0 18FFF4E5#090A9E0F1202018C
(1617533810.863923) can0 18FEF4E5#68103C0F01000000
(1617533810.909148) can0 18FFF4E5#090A9E0F1202018C
(1617533810.914008) can0 18FEF4E5#68103C0F01000000
(1617533810.959714) can0 18FFF4E5#090A9E0F1202018C
(1617533810.964079) can0 18FEF4E5#68103C0F01000000
(1617533811.009161) can0 18FFF4E5#090A9E0F1202018C
(1617533811.014123) can0 18FEF4E5#68103C0F01000000
(1617533811.059698) can0 18FFF4E5#090A9E0F1202018C
(1617533811.064103) can0 18FEF4E5#68103C0F01000000
(1617533811.109267) can0 18FFF4E5#090A9E0F1202018C
(1617533811.114144) can0 18FEF4E5#68103C0F01000000
(1617533811.159793) can0 18FFF4E5#0B0A9E0F1202018C
(1617533811.164194) can0 18FEF4E5#68103C0F01000000
(1617533811.209382) can0 18FFF4E5#0B0A9E0F1202018C
(1617533811.214233) can0 18FEF4E5#68103C0F01000000
(1617533811.259878) can0 18FFF4E5#0B0A9E0F1202018C
(1617533811.264277) can0 18FEF4E5#68103C0F01000000
(1617533811.309649) can0 18FFF4E5#0B0A9E0F1202018C
(1617533811.314323) can0 18FEF4E5#68103C0F01000000
(1617533811.359965) can0 18FFF4E5#0B0A9E0F1202018C
(1617533811.364370) can0 18FEF4E5#68103C0F01000000
(1617533811.409531) can0 18FFF4E5#0B0A9E0F1202018C
(1617533811.414409) can0 18FEF4E5#68103C0F01000000
(1617533811.460056) can0 18FFF4E5#0B0A9E0F1202018C
(1617533811.464457) can0 18FEF4E5#68103C0F01000000
(1617533811.509605) can0 18FFF4E5#0B0A9E0F1202018C
(1617533811.514500) can0 18FEF4E5#68103C0F01000000
(1617533811.560141) can0 18FFF4E5#0B0A9E0F1202018C
(1617533811.564545) can0 18FEF4E5#68103C0F01000000
(1617533811.609721) can0 18FFF4E5#0B0A9E0F1202018C
(1617533811.614589) can0 18FEF4E5#68103C0F01000000
(1617533811.660227) can0 18FFF4E5#0B0A9E0F1202018C
(1617533811.664635) can0 18FEF4E5#68103C0F01000000
(1617533811.709818) can0 18FFF4E5#0B0A9E0F1202018C
(1617533811.714714) can0 18FEF4E5#68103C0F01000000
(1617533811.760462) can0 18FFF4E5#0B0A9E0F1202018C
(1617533811.764790) can0 18FEF4E5#68103C0F01000000
(1617533811.809954) can0 18FFF4E5#0B0A9E0F1202018C
(1617533811.814861) can0 18FEF4E5#68103C0F01000000
(1617533811.860502) can0 18FFF4E5#0B0A9E0F1202018C
(1617533811.864885) can0 18FEF4E5#68103C0F01000000
(1617533811.910050) can0 18FFF4E5#0B0A9E0F1202018C
(1617533811.914872) can0 18FEF4E5#68103C0F01000000
(1617533811.960495) can0 18FFF4E5#0B0A9E0F1202018C
(1617533811.964900) can0 18FEF4E5#68103C0F01000000
(1617533812.010030) can0 18FFF4E5#0B0A9E0F1202018C
(1617533812.014941) can0 18FEF4E5#68103C0F01000000
(1617533812.060599) can0 18FFF4E5#0B0A9E0F1202018C
(1617533812.064982) can0 18FEF4E5#68103C0F01000000
(1617533812.110143) can0 18FFF4E5#0B0A9E0F1202018C
(1617533812.115030) can0 18FEF4E5#68103C0F01000000
(1617533812.160670) can0 18FFF4E5#0B0A9E0F1202018C
(1617533812.165076) can0 18FEF4E5#68103C0F01000000
(1617533812.210411) can0 18FFF4E5#0B0A9E0F1202018C
(1617533812.215125) can0 18FEF4E5#68103C0F01000000
(1617533812.260771) can0 18FFF4E5#0B0A9E0F1202018C
(1617533812.265176) can0 18FEF4E5#68103C0F01000000
(1617533812.310298) can0 18FFF4E5#0B0A9E0F1202018C
(1617533812.315212) can0 18FEF4E5#68103C0F01000000
(1617533812.360859) can0 18FFF4E5#0B0A9E0F1202018C
(1617533812.365285) can0 18FEF4E5#68103C0F01000000
(1617533812.410396) can0 18FFF4E5#0B0A9E0F1202018C
(1617533812.415317) can0 18FEF4E5#68103C0F01000000
(1617533812.460938) can0 18FFF4E5#0B0A9E0F1202018C
(1617533812.465356) can0 18FEF4E5#68103C0F01000000
(1617533812.510483) can0 18FFF4E5#0B0A9E0F1202018C
(1617533812.515403) can0 18FEF4E5#68103C0F01000000
(1617533812.561024) can0 18FFF4E5#0B0A9E0F1202018C
(1617533812.565442) can0 18FEF4E5#68103C0F01000000
(1617533812.610566) can0 18FFF4E5#0B0A9E0F1202018C
(1617533812.615483) can0 18FEF4E5#68103C0F01000000
(1617533812.661502) can0 18FFF4E5#0B0A9E0F1202018C
(1617533812.665733) can0 18FEF4E5#68103C0F01000000
(1617533812.710766) can0 18FFF4E5#0B0A9E0F1202018C
(1617533812.715647) can0 18FEF4E5#68103C0F01000000
(1617533812.761197) can0 18FFF4E5#0C0A9E0F1202018C
(1617533812.765607) can0 18FEF4E5#68103C0F01000000
(1617533812.810741) can0 18FFF4E5#0C0A9E0F1202018C
(1617533812.815648) can0 18FEF4E5#68103C0F01000000
(1617533812.861292) can0 18FFF4E5#0C0A9E0F1202018C
(1617533812.865691) can0 18FEF4E5#68103C0F01000000
(1617533812.910830) can0 18FFF4E5#0C0A9E0F1202018C
(1617533812.915740) can0 18FEF4E5#68103C0F01000000
(1617533812.961379) can0 18FFF4E5#0C0A9E0F1202018C
(1617533812.965780) can0 18FEF4E5#68103C0F01000000
(1617533813.010915) can0 18FFF4E5#0C0A9E0F1202018C
(1617533813.015829) can0 18FEF4E5#68103C0F01000000
(1617533813.061467) can0 18FFF4E5#0C0A9E0F1202018C
(1617533813.065869) can0 18FEF4E5#68103C0F01000000
(1617533813.111231) can0 18FFF4E5#0C0A9E0F1202018C
(1617533813.115915) can0 18FEF4E5#68103C0F01000000
(1617533813.161552) can0 18FFF4E5#0C0A9E0F1202018C
(1617533813.165961) can0 18FEF4E5#68103C0F01000000
(1617533813.211100) can0 18FFF4E5#0C0A9E0F1202018C
(1617533813.216001) can0 18FEF4E5#68103C0F01000000
(1617533813.261639) can0 18FFF4E5#0C0A9E0F1202018C
(1617533813.266046) can0 18FEF4E5#68103C0F01000000
(1617533813.311197) can0 18FFF4E5#0C0A9E0F1202018C
(1617533813.316091) can0 18FEF4E5#68103C0F01000000
(1617533813.361727) can0 18FFF4E5#0C0A9E0F1202018C
(1617533813.366134) can0 18FEF4E5#68103C0F01000000
(1617533813.411267) can0 18FFF4E5#0C0A9E0F1202018C
(1617533813.416183) can0 18FEF4E5#68103C0F01000000
(1617533813.461917) can0 18FFF4E5#0C0A9E0F1202018C
(1617533813.466261) can0 18FEF4E5#68103C0F01000000
(1617533813.511459) can0 18FFF4E5#0C0A9E0F1202018C
(1617533813.516339) can0 18FEF4E5#68103C0F01000000
(1617533813.561969) can0 18FFF4E5#0C0A9E0F1202018C
(1617533813.566308) can0 18FEF4E5#68103C0F01000000
(1617533813.611453) can0 18FFF4E5#0C0A9E0F1202018C
(1617533813.616356) can0 18FEF4E5#68103C0F01000000
(1617533813.661993) can0 18FFF4E5#0C0A9E0F1202018C
(1617533813.666400) can0 18FEF4E5#68103C0F01000000
(1617533813.711538) can0 18FFF4E5#0C0A9E0F1202018C
(1617533813.716442) can0 18FEF4E5#68103C0F01000000
(1617533813.762087) can0 18FFF4E5#0C0A9E0F1202018C
(1617533813.766491) can0 18FEF4E5#68103C0F01000000
(1617533813.811627) can0 18FFF4E5#0C0A9E0F1202018C
(1617533813.816533) can0 18FEF4E5#68103C0F01000000
(1617533813.862173) can0 18FFF4E5#0C0A9E0F1202018C
(1617533813.866578) can0 18FEF4E5#68103C0F01000000
(1617533813.911712) can0 18FFF4E5#0C0A9E0F1202018C
(1617533813.916619) can0 18FEF4E5#68103C0F01000000
(1617533813.962246) can0 18FFF4E5#0C0A9E0F1202018C
(1617533813.966665) can0 18FEF4E5#68103C0F01000000
(1617533814.011998) can0 18FFF4E5#0C0A9E0F1202018C
(1617533814.016713) can0 18FEF4E5#68103C0F01000000
(1617533814.062343) can0 18FFF4E5#0C0A9E0F1202018C
(1617533814.066783) can0 18FEF4E5#68103C0F01000000
(1617533814.111901) can0 18FFF4E5#0C0A9E0F1202018C
(1617533814.116800) can0 18FEF4E5#68103C0F01000000
(1617533814.162436) can0 18FFF4E5#0C0A9E0F1202018C
(1617533814.166843) can0 18FEF4E5#68103C0F01000000
(1617533814.211984) can0 18FFF4E5#0C0A9E0F1202018C
(1617533814.216884) can0 18FEF4E5#68103C0F01000000
(1617533814.262565) can0 18FFF4E5#0C0A9E0F1202018C
(1617533814.266966) can0 18FEF4E5#68103C0F01000000
(1617533814.312164) can0 18FFF4E5#0C0A9E0F1202018C
(1617533814.317051) can0 18FEF4E5#68103C0F01000000
(1617533814.362610) can0 18FFF4E5#0C0A9E0F1202018C
(1617533814.367024) can0 18FEF4E5#68103C0F01000000
(1617533814.412163) can0 18FFF4E5#0C0A9E0F1202018C
(1617533814.417065) can0 18FEF4E5#68103C0F01000000
(1617533814.462889) can0 18FFF4E5#0C0A9E0F1202018C
(1617533814.467109) can0 18FEF4E5#68103C0F01000000
(1617533814.512254) can0 18FFF4E5#0C0A9E0F1202018C
(1617533814.517150) can0 18FEF4E5#68103C0F01000000
(1617533814.562782) can0 18FFF4E5#0C0A9E0F1202018C
(1617533814.567196) can0 18FEF4E5#68103C0F01000000
(1617533814.612342) can0 18FFF4E5#0C0A9E0F1202018C
(1617533814.617240) can0 18FEF4E5#68103C0F01000000
(1617533814.662862) can0 18FFF4E5#0C0A9E0F1202018C
(1617533814.667279) can0 18FEF4E5#68103C0F01000000
(1617533814.712429) can0 18FFF4E5#0C0A9E0F1202018C
(1617533814.717327) can0 18FEF4E5#68103C0F01000000
(1617533814.762961) can0 18FFF4E5#0C0A9E0F1202018C
(1617533814.767371) can0 18FEF4E5#68103C0F01000000
(1617533814.812513) can0 18FFF4E5#0C0A9E0F1202018C
(1617533814.817521) can0 18FEF4E5#68103C0F01000000
(1617533814.863049) can0 18FFF4E5#0C0A9E0F1202018C
(1617533814.867464) can0 18FEF4E5#68103C0F01000000
(1617533814.912823) can0 18FFF4E5#0C0A9E0F1202018C
(1617533814.917503) can0 18FEF4E5#68103C0F01000000
(1617533814.963143) can0 18FFF4E5#0C0A9E0F1202018C
(1617533814.967544) can0 18FEF4E5#68103C0F01000000
(1617533815.012696) can0 18FFF4E5#0C0A9E0F1202018C
(1617533815.017592) can0 18FEF4E5#68103C0F01000000
(1617533815.063284) can0 18FFF4E5#0C0A9E0F1202018C
(1617533815.067677) can0 18FEF4E5#68103C0F01000000
(1617533815.112871) can0 18FFF4E5#0C0A9E0F1202018C
(1617533815.117765) can0 18FEF4E5#68103C0F01000000
(1617533815.163441) can0 18FFF4E5#0C0A9E0F1202018C
(1617533815.167875) can0 18FEF4E5#68103C0F01000000
(1617533815.212963) can0 18FFF4E5#0C0A9E0F1202018C
(1617533815.217853) can0 18FEF4E5#68103C0F01000000
(1617533815.263417) can0 18FFF4E5#0C0A9E0F1202018C
(1617533815.267810) can0 18FEF4E5#68103C0F01000000
(1617533815.312954) can0 18FFF4E5#0C0A9E0F1202018C
(1617533815.317855) can0 18FEF4E5#68103C0F01000000
(1617533815.363549) can0 18FFF4E5#0C0A9E0F1202018C
(1617533815.367899) can0 18FEF4E5#68103C0F01000000
(1617533815.413042) can0 18FFF4E5#0C0A9E0F1202018C
(1617533815.417942) can0 18FEF4E5#68103C0F01000000
(1617533815.463580) can0 18FFF4E5#0C0A9E0F1202018C
(1617533815.467984) can0 18FEF4E5#68103C0F01000000
(1617533815.513130) can0 18FFF4E5#0C0A9E0F1202018C
(1617533815.518035) can0 18FEF4E5#68103C0F01000000
(1617533815.563668) can0 18FFF4E5#0C0A9E0F1202018C
(1617533815.568077) can0 18FEF4E5#68103C0F01000000
(1617533815.613220) can0 18FFF4E5#0C0A9E0F1202018C
(1617533815.618119) can0 18FEF4E5#68103C0F01000000
(1617533815.663747) can0 18FFF4E5#0C0A9E0F1202018C
(1617533815.668162) can0 18FEF4E5#68103C0F01000000
(1617533815.713313) can0 18FFF4E5#0C0A9E0F1202018C
(1617533815.718212) can0 18FEF4E5#68103C0F01000000
(1617533815.763829) can0 18FFF4E5#0C0A9E0F1202018C
(1617533815.768264) can0 18FEF4E5#68103C0F01000000
(1617533815.813583) can0 18FFF4E5#0C0A9E0F1202018C
(1617533815.818312) can0 18FEF4E5#68103C0F01000000
(1617533815.864002) can0 18FFF4E5#0C0A9E0F1202018C
(1617533815.868358) can0 18FEF4E5#68103C0F01000000
(1617533815.913479) can0 18FFF4E5#0C0A9E0F1202018C
(1617533815.918403) can0 18FEF4E5#68103C0F01000000
(1617533815.964063) can0 18FFF4E5#0C0A9E0F1202018C
(1617533815.968496) can0 18FEF4E5#68103C0F01000000
(1617533816.013652) can0 18FFF4E5#0C0A9E0F1202018C
(1617533816.018653) can0 18FEF4E5#68103C0F01000000
(1617533816.064172) can0 18FFF4E5#0C0A9E0F1202018C
(1617533816.068549) can0 18FEF4E5#68103C0F01000000
(1617533816.113658) can0 18FFF4E5#0C0A9E0F1202018C
(1617533816.118562) can0 18FEF4E5#68103C0F01000000
(1617533816.164193) can0 18FFF4E5#0C0A9E0F1202018C
(1617533816.168606) can0 18FEF4E5#68103C0F01000000
(1617533816.213747) can0 18FFF4E5#0C0A9E0F1202018C
(1617533816.218654) can0 18FEF4E5#68103C0F01000000
(1617533816.264512) can0 18FFF4E5#0C0A9E0F1202018C
(1617533816.268698) can0 18FEF4E5#68103C0F01000000
(1617533816.313849) can0 18FFF4E5#0C0A9E0F1202018C
(1617533816.318739) can0 18FEF4E5#68103C0F01000000
(1617533816.364434) can0 18FFF4E5#0C0A9E0F1202018C
(1617533816.368780) can0 18FEF4E5#68103C0F01000000
(1617533816.413925) can0 18FFF4E5#0C0A9E0F1202018C
(1617533816.418826) can0 18FEF4E5#68103C0F01000000
(1617533816.464525) can0 18FFF4E5#0C0A9E0F1202018C
(1617533816.468871) can0 18FEF4E5#68103C0F01000000
(1617533816.514021) can0 18FFF4E5#0C0A9E0F1202018C
(1617533816.518960) can0 18FEF4E5#68103C0F01000000
(1617533816.564559) can0 18FFF4E5#0C0A9E0F1202018C
(1617533816.568966) can0 18FEF4E5#68103C0F01000000
(1617533816.614127) can0 18FFF4E5#0C0A9E0F1202018C
(1617533816.619015) can0 18FEF4E5#68103C0F01000000
(1617533816.664639) can0 18FFF4E5#0C0A9E0F1202018C
(1617533816.669049) can0 18FEF4E5#68103C0F01000000
(1617533816.714412) can0 18FFF4E5#0C0A9E0F1202018C
(1617533816.719095) can0 18FEF4E5#68103C0F01000000
(1617533816.764740) can0 18FFF4E5#0C0A9E0F1202018C
(1617533816.769176) can0 18FEF4E5#68103C0F01000000
(1617533816.814415) can0 18FFF4E5#0C0A9E0F1202018C
(1617533816.819259) can0 18FEF4E5#68103C0F01000000
(1617533816.864940) can0 18FFF4E5#0C0A9E0F1202018C
(1617533816.869340) can0 18FEF4E5#68103C0F01000000
(1617533816.914401) can0 18FFF4E5#0C0A9E0F1202018C
(1617533816.919271) can0 18FEF4E5#68103C0F01000000
(1617533816.964905) can0 18FFF4E5#0C0A9E0F1202018C
(1617533816.969311) can0 18FEF4E5#68103C0F01000000
(1617533817.014475) can0 18FFF4E5#0C0A9E0F1202018C
(1617533817.019358) can0 18FEF4E5#68103C0F01000000
(1617533817.064997) can0 18FFF4E5#0C0A9E0F1202018C
(1617533817.069397) can0 18FEF4E5#68103C0F01000000
(1617533817.114551) can0 18FFF4E5#0C0A9E0F1202018C
(1617533817.119446) can0 18FEF4E5#68103C0F01000000
(1617533817.165137) can0 18FFF4E5#0C0A9E0F1202018C
(1617533817.169490) can0 18FEF4E5#68103C0F01000000
(1617533817.214634) can0 18FFF4E5#0C0A9E0F1202018C
(1617533817.219537) can0 18FEF4E5#68103C0F01000000
(1617533817.265167) can0 18FFF4E5#0C0A9E0F1202018C
(1617533817.269576) can0 18FEF4E5#68103C0F01000000
(1617533817.314726) can0 18FFF4E5#0C0A9E0F1202018C
(1617533817.319623) can0 18FEF4E5#68103C0F01000000
(1617533817.365277) can0 18FFF4E5#0C0A9E0F1202018C
(1617533817.369668) can0 18FEF4E5#68103C0F01000000
(1617533817.414802) can0 18FFF4E5#0C0A9E0F1202018C
(1617533817.419710) can0 18FEF4E5#68103C0F01000000
(1617533817.465366) can0 18FFF4E5#0C0A9E0F1202018C
(1617533817.469750) can0 18FEF4E5#68103C0F01000000
(1617533817.514882) can0 18FFF4E5#0C0A9E0F1202018C
(1617533817.519803) can0 18FEF4E5#68103C0F01000000
(1617533817.565452) can0 18FFF4E5#0C0A9E0F1202018C
(1617533817.569853) can0 18FEF4E5#68103C0F01000000
(1617533817.615365) can0 18FFF4E5#0C0A9E0F1202018C
(1617533817.619931) can0 18FEF4E5#68103C0F01000000
(1617533817.665639) can0 18FFF4E5#0C0A9E0F1202018C
(1617533817.670037) can0 18FEF4E5#68103C0F01000000
(1617533817.715065) can0 18FFF4E5#0C0A9E0F1202018C
(1617533817.719975) can0 18FEF4E5#68103C0F01000000
(1617533817.765632) can0 18FFF4E5#0C0A9E0F1202018C
(1617533817.770020) can0 18FEF4E5#68103C0F01000000
(1617533817.815164) can0 18FFF4E5#0C0A9E0F1202018C
(1617533817.820067) can0 18FEF4E5#68103C0F01000000
(1617533817.865715) can0 18FFF4E5#0C0A9E0F1202018C
(1617533817.870104) can0 18FEF4E5#68103C0F01000000
(1617533817.915239) can0 18FFF4E5#0C0A9E0F1202018C
(1617533817.920156) can0 18FEF4E5#68103C0F01000000
(1617533817.965809) can0 18FFF4E5#0C0A9E0F1202018C
(1617533817.970199) can0 18FEF4E5#68103C0F01000000
(1617533818.015326) can0 18FFF4E5#0C0A9E0F1202018C
(1617533818.020241) can0 18FEF4E5#68103C0F01000000
(1617533818.066093) can0 18FFF4E5#0C0A9E0F1202018C
(1617533818.070287) can0 18FEF4E5#68103C0F01000000
(1617533818.115422) can0 18FFF4E5#0C0A9E0F1202018C
(1617533818.120343) can0 18FEF4E5#68103C0F01000000
(1617533818.165980) can0 18FFF4E5#0C0A9E0F1202018C
(1617533818.170370) can0 18FEF4E5#68103C0F01000000
(1617533818.215507) can0 18FFF4E5#0C0A9E0F1202018C
(1617533818.220414) can0 18FEF4E5#68103C0F01000000
(1617533818.266073) can0 18FFF4E5#0C0A9E0F1202018C
(1617533818.270460) can0 18FEF4E5#68103C0F01000000
(1617533818.315596) can0 18FFF4E5#0C0A9E0F1202018C
(1617533818.320517) can0 18FEF4E5#68103C0F01000000
(1617533818.366162) can0 18FFF4E5#0C0A9E0F1202018C
(1617533818.370552) can0 18FEF4E5#68103C0F01000000
(1617533818.415848) can0 18FFF4E5#0C0A9E0F1202018C
(1617533818.420809) can0 18FEF4E5#68103C0F01000000
(1617533818.466312) can0 18FFF4E5#0C0A9E0F1202018C
(1617533818.471283) can0 18FEF4E5#68103C0F01000000
(1617533818.516075) can0 18FFF4E5#0C0A9E0F1202018C
(1617533818.520750) can0 18FEF4E5#68103C0F01000000
(1617533818.566375) can0 18FFF4E5#0C0A9E0F1202018C
(1617533818.570854) can0 18FEF4E5#68103C0F01000000
(1617533818.615862) can0 18FFF4E5#0C0A9E0F1202018C
(1617533818.620777) can0 18FEF4E5#68103C0F01000000
(1617533818.666420) can0 18FFF4E5#0C0A9E0F1202018C
(1617533818.670817) can0 18FEF4E5#68103C0F01000000
(1617533818.715945) can0 18FFF4E5#0C0A9E0F1202018C
(1617533818.720862) can0 18FEF4E5#68103C0F01000000
(1617533818.766504) can0 18FFF4E5#0C0A9E0F1202018C
(1617533818.770904) can0 18FEF4E5#68103C0F01000000
(1617533818.816032) can0 18FFF4E5#0C0A9E0F1202018C
(1617533818.821053) can0 18FEF4E5#68103C0F01000000
(1617533818.866593) can0 18FFF4E5#0C0A9E0F1202018C
(1617533818.870995) can0 18FEF4E5#68103C0F01000000
(1617533818.916125) can0 18FFF4E5#0C0A9E0F1202018C
(1617533818.921039) can0 18FEF4E5#68103C0F01000000
(1617533818.966748) can0 18FFF4E5#0C0A9E0F1202018C
(1617533818.971081) can0 18FEF4E5#68103C0F01000000
(1617533819.016214) can0 18FFF4E5#0C0A9E0F1202018C
(1617533819.021134) can0 18FEF4E5#68103C0F01000000
(1617533819.066774) can0 18FFF4E5#0C0A9E0F1202018C
(1617533819.071165) can0 18FEF4E5#68103C0F01000000
(1617533819.116302) can0 18FFF4E5#0C0A9E0F1202018C
(1617533819.121217) can0 18FEF4E5#68103C0F01000000
(1617533819.166860) can0 18FFF4E5#0C0A9E0F1202018C
(1617533819.171261) can0 18FEF4E5#68103C0F01000000
(1617533819.216447) can0 18FFF4E5#0C0A9E0F1202018C
(1617533819.221369) can0 18FEF4E5#68103C0F01000000
(1617533819.267103) can0 18FFF4E5#0C0A9E0F1202018C
(1617533819.271440) can0 18FEF4E5#68103C0F01000000
(1617533819.316474) can0 18FFF4E5#0C0A9E0F1202018C
(1617533819.321393) can0 18FEF4E5#68103C0F01000000
(1617533819.367031) can0 18FFF4E5#0C0A9E0F1202018C
(1617533819.371440) can0 18FEF4E5#68103C0F01000000
(1617533819.416759) can0 18FFF4E5#0C0A9E0F1202018C
(1617533819.421481) can0 18FEF4E5#68103C0F01000000
(1617533819.467116) can0 18FFF4E5#0C0A9E0F1202018C
(1617533819.471519) can0 18FEF4E5#68103C0F01000000
(1617533819.516792) can0 18FFF4E5#0C0A9E0F1202018C
(1617533819.521573) can0 18FEF4E5#68103C0F01000000
(1617533819.567208) can0 18FFF4E5#0C0A9E0F1202018C
(1617533819.571608) can0 18FEF4E5#68103C0F01000000
(1617533819.616749) can0 18FFF4E5#0C0A9E0F1202018C
(1617533819.621661) can0 18FEF4E5#68103C0F01000000
(1617533819.667299) can0 18FFF4E5#0C0A9E0F1202018C
(1617533819.671699) can0 18FEF4E5#68103C0F01000000
(1617533819.716843) can0 18FFF4E5#0C0A9E0F1202018C
(1617533819.721775) can0 18FEF4E5#68103C0F01000000
(1617533819.767386) can0 18FFF4E5#0C0A9E0F1202018C
(1617533819.771803) can0 18FEF4E5#68103C0F01000000
(1617533819.816933) can0 18FFF4E5#0C0A9E0F1202018C
(1617533819.821870) can0 18FEF4E5#68103C0F01000000
(1617533819.867672) can0 18FFF4E5#0C0A9E0F1202018C
(1617533819.871899) can0 18FEF4E5#68103C0F01000000
(1617533819.917019) can0 18FFF4E5#0C0A9E0F1202018C
(1617533819.921954) can0 18FEF4E5#68103C0F01000000
(1617533819.967563) can0 18FFF4E5#0C0A9E0F1202018C
(1617533819.972019) can0 18FEF4E5#68103C0F01000000
(1617533820.017330) can0 18FFF4E5#0C0A9E0F1202018C
(1617533820.022171) can0 18FEF4E5#68103C0F01000000
(1617533820.067961) can0 18FFF4E5#0C0A9E0F1202018C
(1617533820.072443) can0 18FEF4E5#68103C0F01000000
(1617533820.117222) can0 18FFF4E5#0C0A9E0F1202018C
(1617533820.122101) can0 18FEF4E5#68103C0F01000000
(1617533820.167736) can0 18FFF4E5#0C0A9E0F1202018C
(1617533820.172138) can0 18FEF4E5#68103C0F01000000
(1617533820.217280) can0 18FFF4E5#0C0A9E0F1202018C
(1617533820.222188) can0 18FEF4E5#68103C0F01000000
(1617533820.267829) can0 18FFF4E5#0C0A9E0F1202018C
(1617533820.272228) can0 18FEF4E5#68103C0F01000000
(1617533820.317590) can0 18FFF4E5#0C0A9E0F1202018C
(1617533820.322286) can0 18FEF4E5#68103C0F01000000
(1617533820.367911) can0 18FFF4E5#0C0A9E0F1202018C
(1617533820.372317) can0 18FEF4E5#68103C0F01000000
(1617533820.417461) can0 18FFF4E5#0C0A9E0F1202018C
(1617533820.422366) can0 18FEF4E5#68103C0F01000000
(1617533820.468001) can0 18FFF4E5#0C0A9E0F1202018C
(1617533820.472401) can0 18FEF4E5#68103C0F01000000
(1617533820.517546) can0 18FFF4E5#0C0A9E0F1202018C
(1617533820.522455) can0 18FEF4E5#68103C0F01000000
(1617533820.568090) can0 18FFF4E5#0C0A9E0F1202018C
(1617533820.572493) can0 18FEF4E5#68103C0F01000000
(1617533820.617639) can0 18FFF4E5#0C0A9E0F1202018C
(1617533820.622544) can0 18FEF4E5#68103C0F01000000
(1617533820.668183) can0 18FFF4E5#0C0A9E0F1202018C
(1617533820.672580) can0 18FEF4E5#68103C0F01000000
(1617533820.717728) can0 18FFF4E5#0C0A9E0F1202018C
(1617533820.722641) can0 18FEF4E5#68103C0F01000000
(1617533820.768317) can0 18FFF4E5#0C0A9E0F1202018C
(1617533820.772671) can0 18FEF4E5#68103C0F01000000
(1617533820.817896) can0 18FFF4E5#0C0A9E0F1202018C
(1617533820.822984) can0 18FEF4E5#68103C0F01000000
(1617533820.868446) can0 18FFF4E5#0C0A9E0F1202018C
(1617533820.872836) can0 18FEF4E5#68103C0F01000000
(1617533820.917934) can0 18FFF4E5#0C0A9E0F1202018C
(1617533820.922883) can0 18FEF4E5#68103C0F01000000
(1617533820.968439) can0 18FFF4E5#0C0A9E0F1202018C
(1617533820.972846) can0 18FEF4E5#68103C0F01000000
(1617533821.018020) can0 18FFF4E5#0C0A9E0F1202018C
(1617533821.022896) can0 18FEF4E5#68103C0F01000000
(1617533821.068535) can0 18FFF4E5#0C0A9E0F1202018C
(1617533821.072937) can0 18FEF4E5#68103C0F01000000
(1617533821.118085) can0 18FFF4E5#0C0A9E0F1202018C
(1617533821.122982) can0 18FEF4E5#68103C0F01000000
(1617533821.168619) can0 18FFF4E5#0C0A9E0F1202018C
(1617533821.173021) can0 18FEF4E5#68103C0F01000000
(1617533821.218359) can0 18FFF4E5#0C0A9E0F1202018C
(1617533821.223071) can0 18FEF4E5#68103C0F01000000
(1617533821.268712) can0 18FFF4E5#0C0A9E0F1202018C
(1617533821.273113) can0 18FEF4E5#68103C0F01000000
(1617533821.318260) can0 18FFF4E5#0C0A9E0F1202018C
(1617533821.323162) can0 18FEF4E5#68103C0F01000000
(1617533821.368802) can0 18FFF4E5#0C0A9E0F1202018C
(1617533821.373201) can0 18FEF4E5#68103C0F01000000
(1617533821.418345) can0 18FFF4E5#0C0A9E0F1202018C
(1617533821.423247) can0 18FEF4E5#68103C0F01000000
(1617533821.468885) can0 18FFF4E5#0C0A9E0F1202018C
(1617533821.473288) can0 18FEF4E5#68103C0F01000000
(1617533821.518544) can0 18FFF4E5#0C0A9E0F1202018C
(1617533821.523335) can0 18FEF4E5#68103C0F01000000
(1617533821.568976) can0 18FFF4E5#0C0A9E0F1202018C
(1617533821.573380) can0 18FEF4E5#68103C0F01000000
(1617533821.618961) can0 18FFF4E5#0C0A9E0F1202018C
(1617533821.623460) can0 18FEF4E5#68103C0F01000000
(1617533821.669398) can0 18FFF4E5#0C0A9E0F1202018C
(1617533821.673578) can0 18FEF4E5#68103C0F01000000
(1617533821.718620) can0 18FFF4E5#0C0A9E0F1202018C
(1617533821.723655) can0 18FEF4E5#68103C0F01000000
(1617533821.769159) can0 18FFF4E5#0C0A9E0F1202018C
(1617533821.773554) can0 18FEF4E5#68103C0F01000000
(1617533821.818702) can0 18FFF4E5#0C0A9E0F1202018C
(1617533821.823599) can0 18FEF4E5#68103C0F01000000
(1617533821.869243) can0 18FFF4E5#0C0A9E0F1202018C
(1617533821.873642) can0 18FEF4E5#68103C0F01000000
(1617533821.918796) can0 18FFF4E5#0C0A9E0F1202018C
(1617533821.923687) can0 18FEF4E5#68103C0F01000000
(1617533821.969328) can0 18FFF4E5#0C0A9E0F1202018C
(1617533821.973731) can0 18FEF4E5#68103C0F01000000
(1617533822.018869) can0 18FFF4E5#0C0A9E0F1202018C
(1617533822.023777) can0 18FEF4E5#68103C0F01000000
(1617533822.069406) can0 18FFF4E5#0C0A9E0F1202018C
(1617533822.073813) can0 18FEF4E5#68103C0F01000000
(1617533822.119172) can0 18FFF4E5#0C0A9E0F1202018C
(1617533822.123861) can0 18FEF4E5#68103C0F01000000
(1617533822.169490) can0 18FFF4E5#0C0A9E0F1202018C
(1617533822.173907) can0 18FEF4E5#68103C0F01000000
(1617533822.219052) can0 18FFF4E5#0C0A9E0F1202018C
(1617533822.223949) can0 18FEF4E5#68103C0F01000000
(1617533822.269581) can0 18FFF4E5#0C0A9E0F1202018C
(1617533822.273992) can0 18FEF4E5#68103C0F01000000
(1617533822.319145) can0 18FFF4E5#0C0A9E0F1202018C
(1617533822.324037) can0 18FEF4E5#68103C0F01000000
(1617533822.369667) can0 18FFF4E5#0C0A9E0F1202018C
(1617533822.374078) can0 18FEF4E5#68103C0F01000000
(1617533822.419232) can0 18FFF4E5#0C0A9E0F1202018C
(1617533822.424138) can0 18FEF4E5#68103C0F01000000
(1617533822.469756) can0 18FFF4E5#0C0A9E0F1202018C
(1617533822.474169) can0 18FEF4E5#68103C0F01000000
(1617533822.519322) can0 18FFF4E5#0C0A9E0F1202018C
(1617533822.524210) can0 18FEF4E5#68103C0F01000000
(1617533822.569902) can0 18FFF4E5#0C0A9E0F1202018C
(1617533822.574256) can0 18FEF4E5#68103C0F01000000
(1617533822.619410) can0 18FFF4E5#0C0A9E0F1202018C
(1617533822.624302) can0 18FEF4E5#68103C0F01000000
(1617533822.669925) can0 18FFF4E5#0C0A9E0F1202018C
(1617533822.674344) can0 18FEF4E5#68103C0F01000000
(1617533822.719486) can0 18FFF4E5#0C0A9E0F1202018C
(1617533822.724390) can0 18FEF4E5#68103C0F01000000
(1617533822.770018) can0 18FFF4E5#0C0A9E0F1202018C
(1617533822.774434) can0 18FEF4E5#68103C0F01000000
(1617533822.819584) can0 18FFF4E5#0C0A9E0F1202018C
(1617533822.824478) can0 18FEF4E5#68103C0F01000000
(1617533822.870109) can0 18FFF4E5#0C0A9E0F1202018C
(1617533822.874600) can0 18FEF4E5#68103C0F01000000
(1617533822.919662) can0 18FFF4E5#0C0A9E0F1202018C
(1617533822.924566) can0 18FEF4E5#68103C0F01000000
(1617533822.970202) can0 18FFF4E5#0C0A9E0F1202018C
(1617533822.974616) can0 18FEF4E5#68103C0F01000000
(1617533823.020005) can0 18FFF4E5#0C0A9E0F1202018C
(1617533823.024656) can0 18FEF4E5#68103C0F01000000
(1617533823.070283) can0 18FFF4E5#0C0A9E0F1202018C
(1617533823.074702) can0 18FEF4E5#68103C0F01000000
(1617533823.119837) can0 18FFF4E5#0C0A9E0F1202018C
(1617533823.124749) can0 18FEF4E5#68103C0F01000000
(1617533823.170373) can0 18FFF4E5#0C0A9E0F1202018C
(1617533823.174790) can0 18FEF4E5#68103C0F01000000
(1617533823.219944) can0 18FFF4E5#0C0A9E0F1202018C
(1617533823.224842) can0 18FEF4E5#68103C0F01000000
(1617533823.270489) can0 18FFF4E5#0C0A9E0F1202018C
(1617533823.274877) can0 18FEF4E5#68103C0F01000000
(1617533823.320005) can0 18FFF4E5#0C0A9E0F1202018C
(1617533823.324923) can0 18FEF4E5#68103C0F01000000
(1617533823.370556) can0 18FFF4E5#0C0A9E0F1202018C
(1617533823.374971) can0 18FEF4E5#68103C0F01000000
(1617533823.420104) can0 18FFF4E5#0C0A9E0F1202018C
(1617533823.425022) can0 18FEF4E5#68103C0F01000000
(1617533823.470848) can0 18FFF4E5#0C0A9E0F1202018C
(1617533823.475064) can0 18FEF4E5#68103C0F01000000
(1617533823.520269) can0 18FFF4E5#0C0A9E0F1202018C
(1617533823.525135) can0 18FEF4E5#68103C0F01000000
(1617533823.570750) can0 18FFF4E5#0C0A9E0F1202018C
(1617533823.575176) can0 18FEF4E5#68103C0F01000000
(1617533823.620288) can0 18FFF4E5#0C0A9E0F1202018C
(1617533823.625210) can0 18FEF4E5#68103C0F01000000
(1617533823.670824) can0 18FFF4E5#0C0A9E0F1202018C
(1617533823.675258) can0 18FEF4E5#68103C0F01000000
(1617533823.720383) can0 18FFF4E5#0C0A9E0F1202018C
(1617533823.725292) can0 18FEF4E5#68103C0F01000000
(1617533823.770908) can0 18FFF4E5#0C0A9E0F1202018C
(1617533823.775323) can0 18FEF4E5#68103C0F01000000
(1617533823.820460) can0 18FFF4E5#0C0A9E0F1202018C
(1617533823.825365) can0 18FEF4E5#68103C0F01000000
(1617533823.871071) can0 18FFF4E5#0C0A9E0F1202018C
(1617533823.876284) can0 18FEF4E5#68103C0F01000000
(1617533823.920939) can0 18FFF4E5#0C0A9E0F1202018C
(1617533823.925519) can0 18FEF4E5#68103C0F01000000
(1617533823.971145) can0 18FFF4E5#0C0A9E0F1202018C
(1617533823.975501) can0 18FEF4E5#68103C0F01000000
(1617533824.020672) can0 18FFF4E5#0C0A9E0F1202018C
(1617533824.025572) can0 18FEF4E5#68103C0F01000000
(1617533824.071186) can0 18FFF4E5#0C0A9E0F1202018C
(1617533824.075583) can0 18FEF4E5#68103C0F01000000
(1617533824.120764) can0 18FFF4E5#0C0A9E0F1202018C
(1617533824.125624) can0 18FEF4E5#68103C0F01000000
(1617533824.171273) can0 18FFF4E5#0C0A9E0F1202018C
(1617533824.175682) can0 18FEF4E5#68103C0F01000000
(1617533824.220863) can0 18FFF4E5#0C0A9E0F1202018C
(1617533824.225717) can0 18FEF4E5#68103C0F01000000
(1617533824.271364) can0 18FFF4E5#0C0A9E0F1202018C
(1617533824.275758) can0 18FEF4E5#68103C0F01000000
(1617533824.320950) can0 18FFF4E5#0C0A9E0F1202018C
(1617533824.325803) can0 18FEF4E5#68103C0F01000000
(1617533824.371520) can0 18FFF4E5#0C0A9E0F1202018C
(1617533824.375848) can0 18FEF4E5#68103C0F01000000
(1617533824.421036) can0 18FFF4E5#090A9E0F1202018C
(1617533824.425890) can0 18FEF4E5#68103C0F01000000
(1617533824.471537) can0 18FFF4E5#F6099E0F1202018C
(1617533824.475935) can0 18FEF4E5#68103C0F01000000
(1617533824.521072) can0 18FFF4E5#F6099E0F1202018C
(1617533824.525978) can0 18FEF4E5#68103C0F01000000
(1617533824.571621) can0 18FFF4E5#D1099E0F1202018C
(1617533824.576027) can0 18FEF4E5#68103C0F01000000
(1617533824.621157) can0 18FFF4E5#AA099E0F1202018C
(1617533824.626066) can0 18FEF4E5#68103C0F01000000
(1617533824.671859) can0 18FFF4E5#AA099E0F1202018C
(1617533824.676464) can0 18FEF4E5#68103C0F01000000
(1617533824.721369) can0 18FFF4E5#7C099E0F1202018C
(1617533824.726244) can0 18FEF4E5#68103C0F01000000
(1617533824.772155) can0 18FFF4E5#4C099E0F1202018C
(1617533824.776201) can0 18FEF4E5#68103C0F01000000
(1617533824.821542) can0 18FFF4E5#1A099E0F1202018C
(1617533824.826243) can0 18FEF4E5#68103C0F01000000
(1617533824.871885) can0 18FFF4E5#1A099E0F1202018C
(1617533824.876286) can0 18FEF4E5#68103C0F01000000
(1617533824.921420) can0 18FFF4E5#EA089E0F1202018C
(1617533824.926337) can0 18FEF4E5#68103C0F01000000
(1617533824.971983) can0 18FFF4E5#B8089E0F1202018C
(1617533824.976377) can0 18FEF4E5#68103C0F01000000
(1617533825.021511) can0 18FFF4E5#B8089E0F1202018C
(1617533825.026422) can0 18FEF4E5#68103C0F01000000
(1617533825.072073) can0 18FFF4E5#88089E0F1202018C
(1617533825.076467) can0 18FEF4E5#68103C0F01000000
(1617533825.121593) can0 18FFF4E5#58089E0F1202018C
(1617533825.126509) can0 18FEF4E5#68103C0F01000000
(1617533825.172155) can0 18FFF4E5#58089E0F1202018C
(1617533825.176556) can0 18FEF4E5#68103C0F01000000
(1617533825.221691) can0 18FFF4E5#2A089E0F1202018C
(1617533825.226605) can0 18FEF4E5#68103C0F01000000
(1617533825.272457) can0 18FFF4E5#FB079E0F1202018C
(1617533825.276643) can0 18FEF4E5#68103C0F01000000
(1617533825.321780) can0 18FFF4E5#FB079E0F1202018C
(1617533825.326684) can0 18FEF4E5#68103C0F01000000
(1617533825.372339) can0 18FFF4E5#CD079E0F1202018C
(1617533825.376730) can0 18FEF4E5#68103C0F01000000
(1617533825.421868) can0 18FFF4E5#A1079E0F1202018C
(1617533825.426776) can0 18FEF4E5#68103C0F01000000
(1617533825.472502) can0 18FFF4E5#76079E0F1202018C
(1617533825.476896) can0 18FEF4E5#68103C0F01000000
(1617533825.522128) can0 18FFF4E5#76079E0F1202018C
(1617533825.526983) can0 18FEF4E5#68103C0F01000000
(1617533825.572536) can0 18FFF4E5#4D079E0F1202018C
(1617533825.576970) can0 18FEF4E5#68103C0F01000000
(1617533825.622051) can0 18FFF4E5#23079E0F1202018C
(1617533825.626955) can0 18FEF4E5#68103C0F01000000
(1617533825.672616) can0 18FFF4E5#23079E0F1202018C
(1617533825.676997) can0 18FEF4E5#68103C0F01000000
(1617533825.722358) can0 18FFF4E5#FC069E0F1202018C
(1617533825.727041) can0 18FEF4E5#68103C0F01000000
(1617533825.772692) can0 18FFF4E5#D3069E0F1202018C
(1617533825.777086) can0 18FEF4E5#68103C0F01000000
(1617533825.822213) can0 18FFF4E5#D3069E0F1202018C
(1617533825.827128) can0 18FEF4E5#68103C0F01000000
(1617533825.872786) can0 18FFF4E5#AE069E0F1202018C
(1617533825.877177) can0 18FEF4E5#68103C0F01000000
(1617533825.922307) can0 18FFF4E5#89069E0F1202018C
(1617533825.927219) can0 18FEF4E5#68103C0F01000000
(1617533825.972874) can0 18FFF4E5#89069E0F1202018C
(1617533825.977263) can0 18FEF4E5#68103C0F01000000
(1617533826.022392) can0 18FFF4E5#66069E0F1202018C
(1617533826.027304) can0 18FEF4E5#68103C0F01000000
(1617533826.072964) can0 18FFF4E5#41069E0F1202018C
(1617533826.077347) can0 18FEF4E5#68103C0F01000000
(1617533826.122486) can0 18FFF4E5#20069E0F1202018C
(1617533826.127393) can0 18FEF4E5#68103C0F01000000
(1617533826.173117) can0 18FFF4E5#20069E0F1202018C
(1617533826.177439) can0 18FEF4E5#68103C0F01000000
(1617533826.222583) can0 18FFF4E5#FD059E0F1202018C
(1617533826.227485) can0 18FEF4E5#68103C0F01000000
(1617533826.273224) can0 18FFF4E5#DB059E0F1202018C
(1617533826.277664) can0 18FEF4E5#68103C0F01000000
(1617533826.322875) can0 18FFF4E5#DB059E0F1202018C
(1617533826.327704) can0 18FEF4E5#68103C0F01000000
(1617533826.373260) can0 18FFF4E5#BC059E0F1202018C
(1617533826.377716) can0 18FEF4E5#68103C0F01000000
(1617533826.422748) can0 18FFF4E5#9D059E0F1202018C
(1617533826.427663) can0 18FEF4E5#68103C0F01000000
(1617533826.473314) can0 18FFF4E5#9D059E0F1202018C
(1617533826.477705) can0 18FEF4E5#68103C0F01000000
(1617533826.522843) can0 18FFF4E5#7F059E0F1202018C
(1617533826.527751) can0 18FEF4E5#68103C0F01000000
(1617533826.573400) can0 18FFF4E5#61059E0F1202018C
(1617533826.577790) can0 18FEF4E5#68103C0F01000000
(1617533826.623127) can0 18FFF4E5#44059E0F1202018C
(1617533826.627836) can0 18FEF4E5#68103C0F01000000
(1617533826.673481) can0 18FFF4E5#44059E0F1202018C
(1617533826.677884) can0 18FEF4E5#68103C0F01000000
(1617533826.723021) can0 18FFF4E5#26059E0F1202018C
(1617533826.727926) can0 18FEF4E5#68103C0F01000000
(1617533826.773570) can0 18FFF4E5#0C059E0F1202018C
(1617533826.777969) can0 18FEF4E5#68103C0F01000000
(1617533826.823188) can0 18FFF4E5#0C059E0F1202018C
(1617533826.828013) can0 18FEF4E5#68103C0F01000000
(1617533826.873671) can0 18FFF4E5#F1049E0F1202018C
(1617533826.878065) can0 18FEF4E5#68103C0F01000000
(1617533826.923199) can0 18FFF4E5#D3049E0F1202018C
(1617533826.928120) can0 18FEF4E5#68103C0F01000000
(1617533826.973760) can0 18FFF4E5#D3049E0F1202018C
(1617533826.978164) can0 18FEF4E5#68103C0F01000000
(1617533827.023279) can0 18FFF4E5#BB049E0F1202018C
(1617533827.028224) can0 18FEF4E5#68103C0F01000000
(1617533827.074068) can0 18FFF4E5#A1049E0F1202018C
(1617533827.078290) can0 18FEF4E5#68103C0F01000000
(1617533827.123462) can0 18FFF4E5#A1049E0F1202018C
(1617533827.128400) can0 18FEF4E5#68103C0F01000000
(1617533827.174248) can0 18FFF4E5#87049E0F1202018C
(1617533827.178401) can0 18FEF4E5#68103C0F01000000
(1617533827.223456) can0 18FFF4E5#71049E0F1202018C
(1617533827.228388) can0 18FEF4E5#68103C0F01000000
(1617533827.274090) can0 18FFF4E5#59049E0F1202018C
(1617533827.278547) can0 18FEF4E5#68103C0F01000000
(1617533827.323544) can0 18FFF4E5#59049E0F1202018C
(1617533827.328456) can0 18FEF4E5#68103C0F01000000
(1617533827.374120) can0 18FFF4E5#41049E0F1202018C
(1617533827.378497) can0 18FEF4E5#68103C0F01000000
(1617533827.423640) can0 18FFF4E5#2B049E0F1202018C
(1617533827.428547) can0 18FEF4E5#68103C0F01000000
(1617533827.474213) can0 18FFF4E5#2B049E0F1202018C
(1617533827.478590) can0 18FEF4E5#68103C0F01000000
(1617533827.523940) can0 18FFF4E5#14049E0F1202018C
(1617533827.528627) can0 18FEF4E5#68103C0F01000000
(1617533827.574302) can0 18FFF4E5#00049E0F1202018C
(1617533827.578675) can0 18FEF4E5#68103C0F01000000
(1617533827.623821) can0 18FFF4E5#00049E0F1202018C
(1617533827.628720) can0 18FEF4E5#68103C0F01000000
(1617533827.674385) can0 18FFF4E5#E8039E0F1202018C
(1617533827.678767) can0 18FEF4E5#68103C0F01000000
(1617533827.723893) can0 18FFF4E5#D4039E0F1202018C
(1617533827.728812) can0 18FEF4E5#68103C0F01000000
(1617533827.774470) can0 18FFF4E5#D4039E0F1202018C
(1617533827.778854) can0 18FEF4E5#68103C0F01000000
(1617533827.823985) can0 18FFF4E5#BF039E0F1202018C
(1617533827.828937) can0 18FEF4E5#68103C0F01000000
(1617533827.874561) can0 18FFF4E5#AF039E0F1202018C
(1617533827.878957) can0 18FEF4E5#68103C0F01000000
(1617533827.924178) can0 18FFF4E5#9A039E0F1202018C
(1617533827.929185) can0 18FEF4E5#68103C0F01000000
(1617533827.974803) can0 18FFF4E5#9A039E0F1202018C
(1617533827.979189) can0 18FEF4E5#68103C0F01000000
(1617533828.024169) can0 18FFF4E5#86039E0F1202018C
(1617533828.029076) can0 18FEF4E5#68103C0F01000000
(1617533828.074727) can0 18FFF4E5#73039E0F1202018C
(1617533828.079124) can0 18FEF4E5#68103C0F00000000
(1617533828.124249) can0 18FFF4E5#73039E0F1202018C
(1617533828.129171) can0 18FEF4E5#68103C0F00000000
(1617533828.174813) can0 18FFF4E5#61039E0F1202018C
(1617533828.179212) can0 18FEF4E5#68103C0F00000000
(1617533828.224343) can0 18FFF4E5#52039E0F1202018C
(1617533828.229257) can0 18FEF4E5#68103C0F00000000
(1617533828.274913) can0 18FFF4E5#52039E0F1202018C
(1617533828.279298) can0 18FEF4E5#68103C0F00000000
(1617533828.324432) can0 18FFF4E5#40039E0F1202018C
(1617533828.329342) can0 18FEF4E5#68103C0F00000000
(1617533828.374999) can0 18FFF4E5#2F039E0F1202018C
(1617533828.379391) can0 18FEF4E5#68103C0F00000000
(1617533828.424710) can0 18FFF4E5#20039E0F1202018C
(1617533828.429435) can0 18FEF4E5#68103C0F00000000
(1617533828.475090) can0 18FFF4E5#20039E0F1202018C
(1617533828.479477) can0 18FEF4E5#68103C0F00000000
(1617533828.524608) can0 18FFF4E5#0E039E0F1202018C
(1617533828.529522) can0 18FEF4E5#68103C0F00000000
(1617533828.575186) can0 18FFF4E5#FD029E0F1202018C
(1617533828.579569) can0 18FEF4E5#68103C0F00000000
(1617533828.624706) can0 18FFF4E5#FD029E0F1202018C
(1617533828.629613) can0 18FEF4E5#68103C0F00000000
(1617533828.675264) can0 18FFF4E5#F0029E0F1202018C
(1617533828.679655) can0 18FEF4E5#68103C0F00000000
(1617533828.724916) can0 18FFF4E5#DE029E0F1202018C
(1617533828.730610) can0 18FEF4E5#68103C0F00000000
(1617533828.775436) can0 18FFF4E5#DE029E0F1202018C
(1617533828.780103) can0 18FEF4E5#68103C0F00000000
(1617533828.824873) can0 18FFF4E5#D1029E0F1202018C
(1617533828.829800) can0 18FEF4E5#68103C0F00000000
(1617533828.875654) can0 18FFF4E5#C4029E0F1202018C
(1617533828.879981) can0 18FEF4E5#68103C0F00000000
(1617533828.924965) can0 18FFF4E5#C4029E0F1202018C
(1617533828.929879) can0 18FEF4E5#68103C0F00000000
(1617533828.975564) can0 18FFF4E5#B3029E0F1202018C
(1617533828.979920) can0 18FEF4E5#68103C0F00000000
(1617533829.025048) can0 18FFF4E5#A6029E0F1202018C
(1617533829.029963) can0 18FEF4E5#68103C0F00000000
(1617533829.075645) can0 18FFF4E5#97029E0F1202018C
(1617533829.080010) can0 18FEF4E5#68103C0F00000000
(1617533829.125143) can0 18FFF4E5#97029E0F1202018C
(1617533829.130052) can0 18FEF4E5#68103C0F00000000
(1617533829.175906) can0 18FFF4E5#8A029E0F1202018C
(1617533829.180096) can0 18FEF4E5#68103C0F00000000
(1617533829.225227) can0 18FFF4E5#7D029E0F1202018C
(1617533829.230139) can0 18FEF4E5#68103C0F00000000
(1617533829.276096) can0 18FFF4E5#7D029E0F1202018C
(1617533829.280185) can0 18FEF4E5#68103C0F00000000
(1617533829.325531) can0 18FFF4E5#72029E0F1202018C
(1617533829.330259) can0 18FEF4E5#68103C0F00000000
(1617533829.375909) can0 18FFF4E5#67029E0F1202018C
(1617533829.380277) can0 18FEF4E5#68103C0F00000000
(1617533829.425398) can0 18FFF4E5#67029E0F1202018C
(1617533829.430340) can0 18FEF4E5#68103C0F00000000
(1617533829.476029) can0 18FFF4E5#58029E0F1202018C
(1617533829.480504) can0 18FEF4E5#68103C0F00000000
(1617533829.525561) can0 18FFF4E5#4B029E0F1202018C
(1617533829.530442) can0 18FEF4E5#68103C0F00000000
(1617533829.576164) can0 18FFF4E5#4B029E0F1202018C
(1617533829.580507) can0 18FEF4E5#68103C0F00000000
(1617533829.625575) can0 18FFF4E5#42029E0F1202018C
(1617533829.630539) can0 18FEF4E5#68103C0F00000000
(1617533829.676256) can0 18FFF4E5#35029E0F1202018C
(1617533829.680538) can0 18FEF4E5#68103C0F00000000
(1617533829.725665) can0 18FFF4E5#2A029E0F1202018C
(1617533829.730583) can0 18FEF4E5#68103C0F00000000
(1617533829.776304) can0 18FFF4E5#2A029E0F1202018C
(1617533829.780628) can0 18FEF4E5#68103C0F00000000
(1617533829.825757) can0 18FFF4E5#21029E0F1202018C
(1617533829.830672) can0 18FEF4E5#68103C0F00000000
(1617533829.876313) can0 18FFF4E5#16029E0F1202018C
(1617533829.880715) can0 18FEF4E5#68103C0F00000000
(1617533829.925840) can0 18FFF4E5#16029E0F1202018C
(1617533829.930780) can0 18FEF4E5#68103C0F00000000
(1617533829.976401) can0 18FFF4E5#0D029E0F1202018C
(1617533829.980807) can0 18FEF4E5#68103C0F00000000
(1617533830.025931) can0 18FFF4E5#FE019E0F1202018C
(1617533830.030862) can0 18FEF4E5#68103C0F00000000
(1617533830.076515) can0 18FFF4E5#FE019E0F1202018C
(1617533830.080918) can0 18FEF4E5#68103C0F00000000
(1617533830.126017) can0 18FFF4E5#F6019E0F1202018C
(1617533830.130961) can0 18FEF4E5#68103C0F00000000
(1617533830.176588) can0 18FFF4E5#E9019E0F1202018C
(1617533830.181006) can0 18FEF4E5#68103C0F00000000
(1617533830.226397) can0 18FFF4E5#E2019E0F1202018C
(1617533830.231051) can0 18FEF4E5#68103C0F00000000
(1617533830.276664) can0 18FFF4E5#E2019E0F1202018C
(1617533830.281094) can0 18FEF4E5#68103C0F00000000
(1617533830.326321) can0 18FFF4E5#DB019E0F1202018C
(1617533830.331208) can0 18FEF4E5#68103C0F00000000
(1617533830.376856) can0 18FFF4E5#D1019E0F1202018C
(1617533830.381532) can0 18FEF4E5#68103C0F00000000
(1617533830.426423) can0 18FFF4E5#D1019E0F1202018C
(1617533830.431206) can0 18FEF4E5#68103C0F00000000
(1617533830.476839) can0 18FFF4E5#C8019E0F1202018C
(1617533830.481247) can0 18FEF4E5#68103C0F00000000
(1617533830.526476) can0 18FFF4E5#BD019E0F1202018C
(1617533830.531290) can0 18FEF4E5#68103C0F00000000
(1617533830.576925) can0 18FFF4E5#BD019E0F1202018C
(1617533830.581337) can0 18FEF4E5#68103C0F00000000
(1617533830.626496) can0 18FFF4E5#B4019E0F1202018C
(1617533830.631381) can0 18FEF4E5#68103C0F00000000
(1617533830.677199) can0 18FFF4E5#AE019E0F1202018C
(1617533830.681423) can0 18FEF4E5#68103C0F00000000
(1617533830.726598) can0 18FFF4E5#AE019E0F1202018C
(1617533830.731469) can0 18FEF4E5#68103C0F00000000
(1617533830.777106) can0 18FFF4E5#A1019E0F1202018C
(1617533830.781515) can0 18FEF4E5#68103C0F00000000
(1617533830.826663) can0 18FFF4E5#9C019E0F1202018C
(1617533830.831557) can0 18FEF4E5#68103C0F00000000
(1617533830.877187) can0 18FFF4E5#92019E0F1202018C
(1617533830.881601) can0 18FEF4E5#68103C0F00000000
(1617533830.926736) can0 18FFF4E5#92019E0F1202018C
(1617533830.931719) can0 18FEF4E5#68103C0F00000000
(1617533830.977282) can0 18FFF4E5#8B019E0F1202018C
(1617533830.981689) can0 18FEF4E5#68103C0F00000000
(1617533831.026838) can0 18FFF4E5#82019E0F1202018C
(1617533831.031730) can0 18FEF4E5#68103C0F00000000
(1617533831.077389) can0 18FFF4E5#82019E0F1202018C
(1617533831.081775) can0 18FEF4E5#68103C0F00000000
(1617533831.127237) can0 18FFF4E5#7C019E0F1202018C
(1617533831.131969) can0 18FEF4E5#68103C0F00000000
(1617533831.177556) can0 18FFF4E5#75019E0F1202018C
(1617533831.182364) can0 18FEF4E5#68103C0F00000000
(1617533831.227066) can0 18FFF4E5#75019E0F1202018C
(1617533831.231993) can0 18FEF4E5#68103C0F00000000
(1617533831.277552) can0 18FFF4E5#6D019E0F1202018C
(1617533831.281954) can0 18FEF4E5#68103C0F00000000
(1617533831.327203) can0 18FFF4E5#64019E0F1202018C
(1617533831.331995) can0 18FEF4E5#68103C0F00000000
(1617533831.377641) can0 18FFF4E5#64019E0F1202018C
(1617533831.382042) can0 18FEF4E5#68103C0F00000000
(1617533831.427209) can0 18FFF4E5#5F019E0F1202018C
(1617533831.432086) can0 18FEF4E5#68103C0F00000000
(1617533831.477728) can0 18FFF4E5#59019E0F1202018C
(1617533831.482127) can0 18FEF4E5#68103C0F00000000
(1617533831.527289) can0 18FFF4E5#50019E0F1202018C
(1617533831.532173) can0 18FEF4E5#68103C0F00000000
(1617533831.577884) can0 18FFF4E5#50019E0F1202018C
(1617533831.582222) can0 18FEF4E5#68103C0F00000000
(1617533831.627374) can0 18FFF4E5#4A019E0F1202018C
(1617533831.632261) can0 18FEF4E5#68103C0F00000000
(1617533831.677898) can0 18FFF4E5#45019E0F1202018C
(1617533831.682308) can0 18FEF4E5#68103C0F00000000
(1617533831.727460) can0 18FFF4E5#45019E0F1202018C
(1617533831.732351) can0 18FEF4E5#68103C0F00000000
(1617533831.777999) can0 18FFF4E5#3F019E0F1202018C
(1617533831.782395) can0 18FEF4E5#68103C0F00000000
(1617533831.827553) can0 18FFF4E5#38019E0F1202018C
(1617533831.832438) can0 18FEF4E5#68103C0F00000000
(1617533831.878086) can0 18FFF4E5#38019E0F1202018C
(1617533831.882480) can0 18FEF4E5#68103C0F00000000
(1617533831.927616) can0 18FFF4E5#34019E0F1202018C
(1617533831.932531) can0 18FEF4E5#68103C0F00000000
(1617533831.978170) can0 18FFF4E5#2D019E0F1202018C
(1617533831.982571) can0 18FEF4E5#68103C0F00000000
(1617533832.028008) can0 18FFF4E5#23019E0F1202018C
(1617533832.032619) can0 18FEF4E5#68103C0F00000000
(1617533832.078257) can0 18FFF4E5#23019E0F1202018C
(1617533832.082662) can0 18FEF4E5#68103C0F00000000
(1617533832.127795) can0 18FFF4E5#22019E0F1202018C
(1617533832.132705) can0 18FEF4E5#68103C0F00000000
(1617533832.178343) can0 18FFF4E5#1A019E0F1202018C
(1617533832.182751) can0 18FEF4E5#68103C0F00000000
(1617533832.227886) can0 18FFF4E5#1A019E0F1202018C
(1617533832.232793) can0 18FEF4E5#68103C0F00000000
(1617533832.278429) can0 18FFF4E5#15019E0F1202018C
(1617533832.282838) can0 18FEF4E5#68103C0F00000000
(1617533832.327965) can0 18FFF4E5#0F019E0F1202018C
(1617533832.332879) can0 18FEF4E5#68103C0F00000000
(1617533832.378664) can0 18FFF4E5#0F019E0F1202018C
(1617533832.382976) can0 18FEF4E5#68103C0F00000000
(1617533832.428064) can0 18FFF4E5#08019E0F1202018C
(1617533832.432980) can0 18FEF4E5#68103C0F00000000
(1617533832.478799) can0 18FFF4E5#04019E0F1202018C
(1617533832.483015) can0 18FEF4E5#68103C0F00000000
(1617533832.528145) can0 18FFF4E5#04019E0F1202018C
(1617533832.533056) can0 18FEF4E5#68103C0F00000000
(1617533832.578709) can0 18FFF4E5#00019E0F1202018C
(1617533832.583101) can0 18FEF4E5#68103C0F00000000
(1617533832.628228) can0 18FFF4E5#FD009E0F1202018C
(1617533832.633156) can0 18FEF4E5#68103C0F00000000
(1617533832.678863) can0 18FFF4E5#F9009E0F1202018C
(1617533832.683286) can0 18FEF4E5#68103C0F00000000
(1617533832.728446) can0 18FFF4E5#F9009E0F1202018C
(1617533832.733433) can0 18FEF4E5#68103C0F00000000
(1617533832.778879) can0 18FFF4E5#F1009E0F1202018C
(1617533832.783277) can0 18FEF4E5#68103C0F00000000
(1617533832.828403) can0 18FFF4E5#EE009E0F1202018C
(1617533832.833323) can0 18FEF4E5#68103C0F00000000
(1617533832.878989) can0 18FFF4E5#EE009E0F1202018C
(1617533832.883367) can0 18FEF4E5#68103C0F00000000
(1617533832.928715) can0 18FFF4E5#E8009E0F1202018C
(1617533832.933411) can0 18FEF4E5#68103C0F00000000
(1617533832.979060) can0 18FFF4E5#E5009E0F1202018C
(1617533832.983453) can0 18FEF4E5#68103C0F00000000
(1617533833.028589) can0 18FFF4E5#E5009E0F1202018C
(1617533833.033498) can0 18FEF4E5#68103C0F00000000
(1617533833.079213) can0 18FFF4E5#DD009E0F1202018C
(1617533833.083541) can0 18FEF4E5#68103C0F00000000
(1617533833.128674) can0 18FFF4E5#DD009E0F1202018C
(1617533833.133591) can0 18FEF4E5#68103C0F00000000
(1617533833.179249) can0 18FFF4E5#DD009E0F1202018C
(1617533833.183630) can0 18FEF4E5#68103C0F00000000
(1617533833.228768) can0 18FFF4E5#D8009E0F1202018C
(1617533833.233677) can0 18FEF4E5#68103C0F00000000
(1617533833.279360) can0 18FFF4E5#D4009E0F1202018C
(1617533833.283743) can0 18FEF4E5#68103C0F00000000
(1617533833.328845) can0 18FFF4E5#CE009E0F1202018C
(1617533833.333767) can0 18FEF4E5#68103C0F00000000
(1617533833.379485) can0 18FFF4E5#CE009E0F1202018C
(1617533833.383806) can0 18FEF4E5#68103C0F00000000
(1617533833.429013) can0 18FFF4E5#C9009E0F1202018C
(1617533833.433857) can0 18FEF4E5#68103C0F00000000
(1617533833.479647) can0 18FFF4E5#C7009E0F1202018C
(1617533833.483972) can0 18FEF4E5#68103C0F00000000
(1617533833.529167) can0 18FFF4E5#C7009E0F1202018C
(1617533833.534016) can0 18FEF4E5#68103C0F00000000
(1617533833.579592) can0 18FFF4E5#C3009E0F1202018C
(1617533833.584020) can0 18FEF4E5#68103C0F00000000
(1617533833.629115) can0 18FFF4E5#C0009E0F1202018C
(1617533833.634031) can0 18FEF4E5#68103C0F00000000
(1617533833.679686) can0 18FFF4E5#C0009E0F1202018C
(1617533833.684076) can0 18FEF4E5#68103C0F00000000
(1617533833.729197) can0 18FFF4E5#BA009E0F1202018C
(1617533833.734117) can0 18FEF4E5#68103C0F00000000
(1617533833.779768) can0 18FFF4E5#BA009E0F1202018C
(1617533833.784163) can0 18FEF4E5#68103C0F00000000
(1617533833.829475) can0 18FFF4E5#B4009E0F1202018C
(1617533833.834205) can0 18FEF4E5#68103C0F00000000
(1617533833.879865) can0 18FFF4E5#B4009E0F1202018C
(1617533833.884314) can0 18FEF4E5#68103C0F00000000
(1617533833.929376) can0 18FFF4E5#B1009E0F1202018C
(1617533833.934295) can0 18FEF4E5#68103C0F00000000
(1617533833.979958) can0 18FFF4E5#AF009E0F1202018C
(1617533833.984339) can0 18FEF4E5#68103C0F00000000
(1617533834.029459) can0 18FFF4E5#AF009E0F1202018C
(1617533834.034381) can0 18FEF4E5#68103C0F00000000
(1617533834.080035) can0 18FFF4E5#A7009E0F1202018C
(1617533834.084425) can0 18FEF4E5#68103C0F00000000
(1617533834.129549) can0 18FFF4E5#A7009E0F1202018C
(1617533834.134474) can0 18FEF4E5#68103C0F00000000
(1617533834.180123) can0 18FFF4E5#A7009E0F1202018C
(1617533834.184537) can0 18FEF4E5#68103C0F00000000
(1617533834.229645) can0 18FFF4E5#A2009E0F1202018C
(1617533834.234561) can0 18FEF4E5#68103C0F00000000
(1617533834.280437) can0 18FFF4E5#9E009E0F1202018C
(1617533834.284672) can0 18FEF4E5#68103C0F00000000
(1617533834.329847) can0 18FFF4E5#9E009E0F1202018C
(1617533834.334763) can0 18FEF4E5#68103C0F00000000
(1617533834.380403) can0 18FFF4E5#9C009E0F1202018C
(1617533834.384693) can0 18FEF4E5#68103C0F00000000
(1617533834.429822) can0 18FFF4E5#9B009E0F1202018C
(1617533834.434732) can0 18FEF4E5#68103C0F00000000
(1617533834.480393) can0 18FFF4E5#95009E0F1202018C
(1617533834.484781) can0 18FEF4E5#68103C0F00000000
(1617533834.530013) can0 18FFF4E5#95009E0F1202018C
(1617533834.534826) can0 18FEF4E5#68103C0F00000000
(1617533834.580467) can0 18FFF4E5#93009E0F1202018C
(1617533834.584869) can0 18FEF4E5#68103C0F00000000
(1617533834.630036) can0 18FFF4E5#91009E0F1202018C
(1617533834.634912) can0 18FEF4E5#68103C0F00000000
(1617533834.680551) can0 18FFF4E5#91009E0F1202018C
(1617533834.684954) can0 18FEF4E5#68103C0F00000000
(1617533834.730329) can0 18FFF4E5#8C009E0F1202018C
(1617533834.735001) can0 18FEF4E5#68103C0F00000000
(1617533834.780646) can0 18FFF4E5#8C009E0F1202018C
(1617533834.785045) can0 18FEF4E5#68103C0F00000000
(1617533834.830194) can0 18FFF4E5#8C009E0F1202018C
(1617533834.835096) can0 18FEF4E5#68103C0F00000000
(1617533834.880731) can0 18FFF4E5#8A009E0F1202018C
(1617533834.885133) can0 18FEF4E5#68103C0F00000000
(1617533834.930295) can0 18FFF4E5#86009E0F1202018C
(1617533834.935179) can0 18FEF4E5#68103C0F00000000
(1617533834.980824) can0 18FFF4E5#86009E0F1202018C
(1617533834.985225) can0 18FEF4E5#68103C0F00000000
(1617533835.030387) can0 18FFF4E5#81009E0F1202018C
(1617533835.035267) can0 18FEF4E5#68103C0F00000000
(1617533835.080910) can0 18FFF4E5#81009E0F1202018C
(1617533835.085311) can0 18FEF4E5#68103C0F00000000
(1617533835.130517) can0 18FFF4E5#7F009E0F1202018C
(1617533835.135358) can0 18FEF4E5#68103C0F00000000
(1617533835.181065) can0 18FFF4E5#7F009E0F1202018C
(1617533835.185403) can0 18FEF4E5#68103C0F00000000
(1617533835.230539) can0 18FFF4E5#7B009E0F1202018C
(1617533835.235443) can0 18FEF4E5#68103C0F00000000
(1617533835.281105) can0 18FFF4E5#77009E0F1202018C
(1617533835.285489) can0 18FEF4E5#68103C0F00000000
(1617533835.330639) can0 18FFF4E5#77009E0F1202018C
(1617533835.335533) can0 18FEF4E5#68103C0F00000000
(1617533835.381193) can0 18FFF4E5#77009E0F1202018C
(1617533835.385575) can0 18FEF4E5#68103C0F00000000
(1617533835.430723) can0 18FFF4E5#74009E0F1202018C
(1617533835.435623) can0 18FEF4E5#68103C0F00000000
(1617533835.481269) can0 18FFF4E5#74009E0F1202018C
(1617533835.485666) can0 18FEF4E5#68103C0F00000000
(1617533835.530802) can0 18FFF4E5#72009E0F1202018C
(1617533835.535711) can0 18FEF4E5#68103C0F00000000
(1617533835.581361) can0 18FFF4E5#6E009E0F1202018C
(1617533835.585755) can0 18FEF4E5#68103C0F00000000
(1617533835.631053) can0 18FFF4E5#6E009E0F1202018C
(1617533835.635800) can0 18FEF4E5#68103C0F00000000
(1617533835.681448) can0 18FFF4E5#6E009E0F1202018C
(1617533835.685844) can0 18FEF4E5#68103C0F00000000
(1617533835.730989) can0 18FFF4E5#6C009E0F1202018C
(1617533835.735883) can0 18FEF4E5#68103C0F00000000
(1617533835.781600) can0 18FFF4E5#69009E0F1202018C
(1617533835.785975) can0 18FEF4E5#68103C0F00000000
(1617533835.831155) can0 18FFF4E5#69009E0F1202018C
(1617533835.836325) can0 18FEF4E5#68103C0F00000000
(1617533835.881748) can0 18FFF4E5#69009E0F1202018C
(1617533835.886077) can0 18FEF4E5#68103C0F00000000
(1617533835.931188) can0 18FFF4E5#67009E0F1202018C
(1617533835.936080) can0 18FEF4E5#68103C0F00000000
(1617533835.981708) can0 18FFF4E5#67009E0F1202018C
(1617533835.986124) can0 18FEF4E5#68103C0F00000000
(1617533836.031252) can0 18FFF4E5#61009E0F1202018C
(1617533836.036169) can0 18FEF4E5#68103C0F00000000
(1617533836.081990) can0 18FFF4E5#5F009E0F1202018C
(1617533836.086214) can0 18FEF4E5#68103C0F00000000
(1617533836.131350) can0 18FFF4E5#5F009E0F1202018C
(1617533836.136250) can0 18FEF4E5#68103C0F00000000
(1617533836.181893) can0 18FFF4E5#5F009E0F1202018C
(1617533836.186288) can0 18FEF4E5#68103C0F00000000
(1617533836.231427) can0 18FFF4E5#5D009E0F1202018C
(1617533836.236327) can0 18FEF4E5#68103C0F00000000
(1617533836.281977) can0 18FFF4E5#5D009E0F1202018C
(1617533836.286369) can0 18FEF4E5#68103C0F00000000
(1617533836.331515) can0 18FFF4E5#5D009E0F1202018C
(1617533836.336421) can0 18FEF4E5#68103C0F00000000
(1617533836.382063) can0 18FFF4E5#5A009E0F1202018C
(1617533836.386463) can0 18FEF4E5#68103C0F00000000
(1617533836.431614) can0 18FFF4E5#56009E0F1202018C
(1617533836.436506) can0 18FEF4E5#68103C0F00000000
(1617533836.482166) can0 18FFF4E5#56009E0F1202018C
(1617533836.486551) can0 18FEF4E5#68103C0F00000000
(1617533836.531914) can0 18FFF4E5#54009E0F1202018C
(1617533836.536596) can0 18FEF4E5#68103C0F00000000
(1617533836.582250) can0 18FFF4E5#54009E0F1202018C
(1617533836.586682) can0 18FEF4E5#68103C0F00000000
(1617533836.631895) can0 18FFF4E5#54009E0F1202018C
(1617533836.636749) can0 18FEF4E5#68103C0F00000000
(1617533836.682400) can0 18FFF4E5#54009E0F1202018C
(1617533836.686873) can0 18FEF4E5#68103C0F00000000
(1617533836.731962) can0 18FFF4E5#4F009E0F1202018C
(1617533836.736858) can0 18FEF4E5#68103C0F00000000
(1617533836.782727) can0 18FFF4E5#4F009E0F1202018C
(1617533836.786894) can0 18FEF4E5#68103C0F00000000
(1617533836.831941) can0 18FFF4E5#4D009E0F1202018C
(1617533836.836855) can0 18FEF4E5#68103C0F00000000
(1617533836.882520) can0 18FFF4E5#4D009E0F1202018C
(1617533836.886905) can0 18FEF4E5#68103C0F00000000
(1617533836.932028) can0 18FFF4E5#4D009E0F1202018C
(1617533836.936947) can0 18FEF4E5#68103C0F00000000
(1617533836.982674) can0 18FFF4E5#4D009E0F1202018C
(1617533836.986992) can0 18FEF4E5#68103C0F00000000
(1617533837.032121) can0 18FFF4E5#4B009E0F1202018C
(1617533837.037032) can0 18FEF4E5#68103C0F00000000
(1617533837.082683) can0 18FFF4E5#49009E0F1202018C
(1617533837.087078) can0 18FEF4E5#68103C0F00000000
(1617533837.132204) can0 18FFF4E5#49009E0F1202018C
(1617533837.137127) can0 18FEF4E5#68103C0F00000000
(1617533837.182785) can0 18FFF4E5#49009E0F1202018C
(1617533837.187171) can0 18FEF4E5#68103C0F00000000
(1617533837.232293) can0 18FFF4E5#45009E0F1202018C
(1617533837.237216) can0 18FEF4E5#68103C0F00000000
(1617533837.282869) can0 18FFF4E5#45009E0F1202018C
(1617533837.287256) can0 18FEF4E5#68103C0F00000000
(1617533837.332392) can0 18FFF4E5#44009E0F1202018C
(1617533837.337303) can0 18FEF4E5#68103C0F00000000
(1617533837.382974) can0 18FFF4E5#44009E0F1202018C
(1617533837.387344) can0 18FEF4E5#68103C0F00000000
(1617533837.432647) can0 18FFF4E5#42009E0F1202018C
(1617533837.437390) can0 18FEF4E5#68103C0F00000000
(1617533837.483055) can0 18FFF4E5#42009E0F1202018C
(1617533837.487436) can0 18FEF4E5#68103C0F00000000
(1617533837.532670) can0 18FFF4E5#42009E0F1202018C
(1617533837.537590) can0 18FEF4E5#68103C0F00000000
(1617533837.583260) can0 18FFF4E5#3E009E0F1202018C
(1617533837.587616) can0 18FEF4E5#68103C0F00000000
(1617533837.632664) can0 18FFF4E5#3E009E0F1202018C
(1617533837.637570) can0 18FEF4E5#68103C0F00000000
(1617533837.683244) can0 18FFF4E5#3A009E0F1202018C
(1617533837.687615) can0 18FEF4E5#68103C0F00000000
(1617533837.732749) can0 18FFF4E5#3A009E0F1202018C
(1617533837.737659) can0 18FEF4E5#68103C0F00000000
(1617533837.783328) can0 18FFF4E5#3A009E0F1202018C
(1617533837.787701) can0 18FEF4E5#68103C0F00000000
(1617533837.832836) can0 18FFF4E5#38009E0F1202018C
(1617533837.837743) can0 18FEF4E5#68103C0F00000000
(1617533837.883590) can0 18FFF4E5#38009E0F1202018C
(1617533837.887793) can0 18FEF4E5#68103C0F00000000
(1617533837.932923) can0 18FFF4E5#38009E0F1202018C
(1617533837.937837) can0 18FEF4E5#68103C0F00000000
(1617533837.983509) can0 18FFF4E5#38009E0F1202018C
(1617533837.987879) can0 18FEF4E5#68103C0F00000000
(1617533838.033012) can0 18FFF4E5#38009E0F1202018C
(1617533838.037921) can0 18FEF4E5#68103C0F00000000
(1617533838.083588) can0 18FFF4E5#37009E0F1202018C
(1617533838.087967) can0 18FEF4E5#68103C0F00000000
(1617533838.133094) can0 18FFF4E5#37009E0F1202018C
(1617533838.138008) can0 18FEF4E5#68103C0F00000000
(1617533838.183684) can0 18FFF4E5#37009E0F1202018C
(1617533838.188054) can0 18FEF4E5#68103C0F00000000
(1617533838.233184) can0 18FFF4E5#35009E0F1202018C
(1617533838.238096) can0 18FEF4E5#68103C0F00000000
(1617533838.283767) can0 18FFF4E5#35009E0F1202018C
(1617533838.288145) can0 18FEF4E5#68103C0F00000000
(1617533838.333544) can0 18FFF4E5#31009E0F1202018C
(1617533838.338226) can0 18FEF4E5#68103C0F00000000
(1617533838.383976) can0 18FFF4E5#2F009E0F1202018C
(1617533838.388588) can0 18FEF4E5#68103C0F00000000
(1617533838.433482) can0 18FFF4E5#2F009E0F1202018C
(1617533838.438349) can0 18FEF4E5#68103C0F00000000
(1617533838.484045) can0 18FFF4E5#2F009E0F1202018C
(1617533838.488686) can0 18FEF4E5#68103C0F00000000
(1617533838.533455) can0 18FFF4E5#2F009E0F1202018C
(1617533838.538366) can0 18FEF4E5#68103C0F00000000
(1617533838.584027) can0 18FFF4E5#2F009E0F1202018C
(1617533838.588412) can0 18FEF4E5#68103C0F00000000
(1617533838.633545) can0 18FFF4E5#2D009E0F1202018C
(1617533838.638458) can0 18FEF4E5#68103C0F00000000
(1617533838.684113) can0 18FFF4E5#2D009E0F1202018C
(1617533838.688499) can0 18FEF4E5#68103C0F00000000
(1617533838.733629) can0 18FFF4E5#2C009E0F1202018C
(1617533838.738540) can0 18FEF4E5#68103C0F00000000
(1617533838.784270) can0 18FFF4E5#2C009E0F1202018C
(1617533838.788585) can0 18FEF4E5#68103C0F00000000
(1617533838.833759) can0 18FFF4E5#2C009E0F1202018C
(1617533838.838632) can0 18FEF4E5#68103C0F00000000
(1617533838.884278) can0 18FFF4E5#2A009E0F1202018C
(1617533838.888678) can0 18FEF4E5#68103C0F00000000
(1617533838.933816) can0 18FFF4E5#2A009E0F1202018C
(1617533838.938716) can0 18FEF4E5#68103C0F00000000
(1617533838.984354) can0 18FFF4E5#2A009E0F1202018C
(1617533838.988830) can0 18FEF4E5#68103C0F00000000
(1617533839.033937) can0 18FFF4E5#26009E0F1202018C
(1617533839.038811) can0 18FEF4E5#68103C0F00000000
(1617533839.084456) can0 18FFF4E5#26009E0F1202018C
(1617533839.088852) can0 18FEF4E5#68103C0F00000000
(1617533839.133990) can0 18FFF4E5#26009E0F1202018C
(1617533839.138946) can0 18FEF4E5#68103C0F00000000
(1617533839.184536) can0 18FFF4E5#26009E0F1202018C
(1617533839.188953) can0 18FEF4E5#68103C0F00000000
(1617533839.234338) can0 18FFF4E5#26009E0F1202018C
(1617533839.239066) can0 18FEF4E5#68103C0F00000000
(1617533839.284790) can0 18FFF4E5#26009E0F1202018C
(1617533839.289285) can0 18FEF4E5#68103C0F00000000
(1617533839.334209) can0 18FFF4E5#26009E0F1202018C
(1617533839.339124) can0 18FEF4E5#68103C0F00000000
(1617533839.384716) can0 18FFF4E5#26009E0F1202018C
(1617533839.389119) can0 18FEF4E5#68103C0F00000000
(1617533839.434255) can0 18FFF4E5#26009E0F1202018C
(1617533839.439165) can0 18FEF4E5#68103C0F00000000
(1617533839.484811) can0 18FFF4E5#24009E0F1202018C
(1617533839.489204) can0 18FEF4E5#68103C0F00000000
(1617533839.534349) can0 18FFF4E5#24009E0F1202018C
(1617533839.539255) can0 18FEF4E5#68103C0F00000000
(1617533839.584897) can0 18FFF4E5#24009E0F1202018C
(1617533839.589296) can0 18FEF4E5#68103C0F00000000
(1617533839.634439) can0 18FFF4E5#24009E0F1202018C
(1617533839.639375) can0 18FEF4E5#68103C0F00000000
(1617533839.685151) can0 18FFF4E5#22009E0F1202018C
(1617533839.689383) can0 18FEF4E5#68103C0F00000000
(1617533839.734555) can0 18FFF4E5#22009E0F1202018C
(1617533839.739427) can0 18FEF4E5#68103C0F00000000
(1617533839.785070) can0 18FFF4E5#22009E0F1202018C
(1617533839.789476) can0 18FEF4E5#68103C0F00000000
(1617533839.834611) can0 18FFF4E5#20009E0F1202018C
(1617533839.839517) can0 18FEF4E5#68103C0F00000000
(1617533839.885175) can0 18FFF4E5#20009E0F1202018C
(1617533839.889564) can0 18FEF4E5#68103C0F00000000
(1617533839.934705) can0 18FFF4E5#20009E0F1202018C
(1617533839.939622) can0 18FEF4E5#68103C0F00000000
(1617533839.985254) can0 18FFF4E5#20009E0F1202018C
(1617533839.989648) can0 18FEF4E5#68103C0F00000000
(1617533840.034993) can0 18FFF4E5#20009E0F1202018C
(1617533840.039737) can0 18FEF4E5#68103C0F00000000
(1617533840.085426) can0 18FFF4E5#20009E0F1202018C
(1617533840.090352) can0 18FEF4E5#68103C0F00000000
(1617533840.135149) can0 18FFF4E5#20009E0F1202018C
(1617533840.139832) can0 18FEF4E5#68103C0F00000000
(1617533840.185433) can0 18FFF4E5#20009E0F1202018C
(1617533840.189825) can0 18FEF4E5#68103C0F00000000
(1617533840.234978) can0 18FFF4E5#20009E0F1202018C
(1617533840.239869) can0 18FEF4E5#68103C0F00000000
(1617533840.285524) can0 18FFF4E5#20009E0F1202018C
(1617533840.289912) can0 18FEF4E5#68103C0F00000000
(1617533840.335065) can0 18FFF4E5#20009E0F1202018C
(1617533840.339957) can0 18FEF4E5#68103C0F00000000
(1617533840.385616) can0 18FFF4E5#20009E0F1202018C
(1617533840.390003) can0 18FEF4E5#68103C0F00000000
(1617533840.435151) can0 18FFF4E5#1D009E0F1202018C
(1617533840.440049) can0 18FEF4E5#68103C0F00000000
(1617533840.485703) can0 18FFF4E5#1D009E0F1202018C
(1617533840.490091) can0 18FEF4E5#68103C0F00000000
(1617533840.535241) can0 18FFF4E5#1D009E0F1202018C
(1617533840.540135) can0 18FEF4E5#68103C0F00000000
(1617533840.585849) can0 18FFF4E5#1D009E0F1202018C
(1617533840.590183) can0 18FEF4E5#68103C0F00000000
(1617533840.635330) can0 18FFF4E5#1D009E0F1202018C
(1617533840.640223) can0 18FEF4E5#68103C0F00000000
(1617533840.685870) can0 18FFF4E5#1B009E0F1202018C
(1617533840.690273) can0 18FEF4E5#68103C0F00000000
(1617533840.735414) can0 18FFF4E5#1B009E0F1202018C
(1617533840.740308) can0 18FEF4E5#68103C0F00000000
(1617533840.785962) can0 18FFF4E5#1B009E0F1202018C
(1617533840.790358) can0 18FEF4E5#68103C0F00000000
(1617533840.835491) can0 18FFF4E5#19009E0F1202018C
(1617533840.840440) can0 18FEF4E5#68103C0F00000000
(1617533840.886259) can0 18FFF4E5#19009E0F1202018C
(1617533840.890887) can0 18FEF4E5#68103C0F00000000
(1617533840.935723) can0 18FFF4E5#19009E0F1202018C
(1617533840.940540) can0 18FEF4E5#68103C0F00000000
(1617533840.986202) can0 18FFF4E5#19009E0F1202018C
(1617533840.990627) can0 18FEF4E5#68103C0F00000000
(1617533841.035841) can0 18FFF4E5#19009E0F1202018C
(1617533841.040601) can0 18FEF4E5#68103C0F00000000
(1617533841.086307) can0 18FFF4E5#19009E0F1202018C
(1617533841.090766) can0 18FEF4E5#68103C0F00000000
(1617533841.135742) can0 18FFF4E5#19009E0F1202018C
(1617533841.140667) can0 18FEF4E5#68103C0F00000000
(1617533841.186319) can0 18FFF4E5#17009E0F1202018C
(1617533841.190708) can0 18FEF4E5#68103C0F00000000
(1617533841.235831) can0 18FFF4E5#17009E0F1202018C
(1617533841.240753) can0 18FEF4E5#68103C0F00000000
(1617533841.286405) can0 18FFF4E5#17009E0F1202018C
(1617533841.290800) can0 18FEF4E5#68103C0F00000000
(1617533841.335921) can0 18FFF4E5#17009E0F1202018C
(1617533841.340843) can0 18FEF4E5#68103C0F00000000
(1617533841.386490) can0 18FFF4E5#17009E0F1202018C
(1617533841.390888) can0 18FEF4E5#68103C0F00000000
(1617533841.436013) can0 18FFF4E5#17009E0F1202018C
(1617533841.440934) can0 18FEF4E5#68103C0F00000000
(1617533841.486758) can0 18FFF4E5#17009E0F1202018C
(1617533841.490981) can0 18FEF4E5#68103C0F00000000
(1617533841.536102) can0 18FFF4E5#17009E0F1202018C
(1617533841.541021) can0 18FEF4E5#68103C0F00000000
(1617533841.586677) can0 18FFF4E5#17009E0F1202018C
(1617533841.591066) can0 18FEF4E5#68103C0F00000000
(1617533841.636187) can0 18FFF4E5#17009E0F1202018C
(1617533841.641117) can0 18FEF4E5#68103C0F00000000
(1617533841.686864) can0 18FFF4E5#17009E0F1202018C
(1617533841.691240) can0 18FEF4E5#68103C0F00000000
(1617533841.736385) can0 18FFF4E5#17009E0F1202018C
(1617533841.741343) can0 18FEF4E5#68103C0F00000000
(1617533841.787002) can0 18FFF4E5#17009E0F1202018C
(1617533841.791243) can0 18FEF4E5#68103C0F00000000
(1617533841.836372) can0 18FFF4E5#17009E0F1202018C
(1617533841.841287) can0 18FEF4E5#68103C0F00000000
(1617533841.886947) can0 18FFF4E5#17009E0F1202018C
(1617533841.891332) can0 18FEF4E5#68103C0F00000000
(1617533841.936677) can0 18FFF4E5#17009E0F1202018C
(1617533841.941378) can0 18FEF4E5#68103C0F00000000
(1617533841.987024) can0 18FFF4E5#17009E0F1202018C
(1617533841.991418) can0 18FEF4E5#68103C0F00000000
(1617533842.036557) can0 18FFF4E5#17009E0F1202018C
(1617533842.041469) can0 18FEF4E5#68103C0F00000000
(1617533842.087118) can0 18FFF4E5#17009E0F1202018C
(1617533842.091504) can0 18FEF4E5#68103C0F00000000
(1617533842.136634) can0 18FFF4E5#17009E0F1202018C
(1617533842.141551) can0 18FEF4E5#68103C0F00000000
(1617533842.187206) can0 18FFF4E5#17009E0F1202018C
(1617533842.191595) can0 18FEF4E5#68103C0F00000000
(1617533842.236717) can0 18FFF4E5#17009E0F1202018C
(1617533842.241653) can0 18FEF4E5#68103C0F00000000
(1617533842.287300) can0 18FFF4E5#17009E0F1202018C
(1617533842.291685) can0 18FEF4E5#68103C0F00000000
(1617533842.336810) can0 18FFF4E5#17009E0F1202018C
(1617533842.341747) can0 18FEF4E5#68103C0F00000000
(1617533842.387456) can0 18FFF4E5#17009E0F1202018C
(1617533842.391782) can0 18FEF4E5#68103C0F00000000
(1617533842.436901) can0 18FFF4E5#17009E0F1202018C
(1617533842.441834) can0 18FEF4E5#68103C0F00000000
(1617533842.487619) can0 18FFF4E5#17009E0F1202018C
(1617533842.492313) can0 18FEF4E5#68103C0F00000000
(1617533842.537095) can0 18FFF4E5#17009E0F1202018C
(1617533842.541975) can0 18FEF4E5#68103C0F00000000
(1617533842.587675) can0 18FFF4E5#17009E0F1202018C
(1617533842.591955) can0 18FEF4E5#68103C0F00000000
(1617533842.637076) can0 18FFF4E5#15009E0F1202018C
(1617533842.642000) can0 18FEF4E5#68103C0F00000000
(1617533842.687651) can0 18FFF4E5#15009E0F1202018C
(1617533842.692045) can0 18FEF4E5#68103C0F00000000
(1617533842.737169) can0 18FFF4E5#15009E0F1202018C
(1617533842.742085) can0 18FEF4E5#68103C0F00000000
(1617533842.787745) can0 18FFF4E5#15009E0F1202018C
(1617533842.792131) can0 18FEF4E5#68103C0F00000000
(1617533842.837418) can0 18FFF4E5#15009E0F1202018C
(1617533842.842173) can0 18FEF4E5#68103C0F00000000
(1617533842.887831) can0 18FFF4E5#15009E0F1202018C
(1617533842.892212) can0 18FEF4E5#68103C0F00000000
(1617533842.937350) can0 18FFF4E5#15009E0F1202018C
(1617533842.942262) can0 18FEF4E5#68103C0F00000000
(1617533842.987927) can0 18FFF4E5#15009E0F1202018C
(1617533842.992304) can0 18FEF4E5#68103C0F00000000
(1617533843.037437) can0 18FFF4E5#15009E0F1202018C
(1617533843.042352) can0 18FEF4E5#68103C0F00000000
(1617533843.088012) can0 18FFF4E5#15009E0F1202018C
(1617533843.092398) can0 18FEF4E5#68103C0F00000000
(1617533843.137587) can0 18FFF4E5#15009E0F1202018C
(1617533843.142442) can0 18FEF4E5#68103C0F00000000
(1617533843.188077) can0 18FFF4E5#15009E0F1202018C
(1617533843.192485) can0 18FEF4E5#68103C0F00000000
(1617533843.237627) can0 18FFF4E5#12009E0F1202018C
(1617533843.242530) can0 18FEF4E5#68103C0F00000000
(1617533843.288443) can0 18FFF4E5#12009E0F1202018C
(1617533843.293097) can0 18FEF4E5#68103C0F00000000
(1617533843.337813) can0 18FFF4E5#12009E0F1202018C
(1617533843.342708) can0 18FEF4E5#68103C0F00000000
(1617533843.388282) can0 18FFF4E5#12009E0F1202018C
(1617533843.392670) can0 18FEF4E5#68103C0F00000000
(1617533843.437866) can0 18FFF4E5#12009E0F1202018C
(1617533843.442874) can0 18FEF4E5#68103C0F00000000
(1617533843.488355) can0 18FFF4E5#12009E0F1202018C
(1617533843.492746) can0 18FEF4E5#68103C0F00000000
(1617533843.537917) can0 18FFF4E5#12009E0F1202018C
(1617533843.542791) can0 18FEF4E5#68103C0F00000000
(1617533843.588433) can0 18FFF4E5#12009E0F1202018C
(1617533843.592837) can0 18FEF4E5#68103C0F00000000
(1617533843.638000) can0 18FFF4E5#12009E0F1202018C
(1617533843.642883) can0 18FEF4E5#68103C0F00000000
(1617533843.688533) can0 18FFF4E5#12009E0F1202018C
(1617533843.692923) can0 18FEF4E5#68103C0F00000000
(1617533843.738284) can0 18FFF4E5#12009E0F1202018C
(1617533843.742969) can0 18FEF4E5#68103C0F00000000
(1617533843.788618) can0 18FFF4E5#12009E0F1202018C
(1617533843.793016) can0 18FEF4E5#68103C0F00000000
(1617533843.838155) can0 18FFF4E5#12009E0F1202018C
(1617533843.843057) can0 18FEF4E5#68103C0F00000000
(1617533843.888706) can0 18FFF4E5#12009E0F1202018C
(1617533843.893104) can0 18FEF4E5#68103C0F00000000
(1617533843.938255) can0 18FFF4E5#12009E0F1202018C
(1617533843.943151) can0 18FEF4E5#68103C0F00000000
(1617533843.988790) can0 18FFF4E5#12009E0F1202018C
(1617533843.993191) can0 18FEF4E5#68103C0F00000000
(1617533844.038445) can0 18FFF4E5#12009E0F1202018C
(1617533844.043266) can0 18FEF4E5#68103C0F00000000
(1617533844.089137) can0 18FFF4E5#12009E0F1202018C
(1617533844.093566) can0 18FEF4E5#68103C0F00000000
(1617533844.138534) can0 18FFF4E5#12009E0F1202018C
(1617533844.143391) can0 18FEF4E5#68103C0F00000000
(1617533844.189040) can0 18FFF4E5#12009E0F1202018C
(1617533844.193371) can0 18FEF4E5#68103C0F00000000
(1617533844.238512) can0 18FFF4E5#12009E0F1202018C
(1617533844.243411) can0 18FEF4E5#68103C0F00000000
(1617533844.289067) can0 18FFF4E5#12009E0F1202018C
(1617533844.293458) can0 18FEF4E5#68103C0F00000000
(1617533844.338607) can0 18FFF4E5#12009E0F1202018C
(1617533844.343503) can0 18FEF4E5#68103C0F00000000
(1617533844.389153) can0 18FFF4E5#12009E0F1202018C
(1617533844.393550) can0 18FEF4E5#68103C0F00000000
(1617533844.438693) can0 18FFF4E5#12009E0F1202018C
(1617533844.443590) can0 18FEF4E5#68103C0F00000000
(1617533844.489238) can0 18FFF4E5#12009E0F1202018C
(1617533844.493635) can0 18FEF4E5#68103C0F00000000
(1617533844.538784) can0 18FFF4E5#12009E0F1202018C
(1617533844.543680) can0 18FEF4E5#68103C0F00000000
(1617533844.589335) can0 18FFF4E5#12009E0F1202018C
(1617533844.593725) can0 18FEF4E5#68103C0F00000000
(1617533844.639034) can0 18FFF4E5#12009E0F1202018C
(1617533844.643767) can0 18FEF4E5#68103C0F00000000
(1617533844.689420) can0 18FFF4E5#12009E0F1202018C
(1617533844.693810) can0 18FEF4E5#68103C0F00000000
(1617533844.739029) can0 18FFF4E5#12009E0F1202018C
(1617533844.743855) can0 18FEF4E5#68103C0F00000000
(1617533844.789501) can0 18FFF4E5#12009E0F1202018C
(1617533844.793896) can0 18FEF4E5#68103C0F00000000
(1617533844.839054) can0 18FFF4E5#12009E0F1202018C
(1617533844.843941) can0 18FEF4E5#68103C0F00000000
(1617533844.889652) can0 18FFF4E5#12009E0F1202018C
(1617533844.894032) can0 18FEF4E5#68103C0F00000000
(1617533844.939239) can0 18FFF4E5#12009E0F1202018C
(1617533844.944110) can0 18FEF4E5#68103C0F00000000
(1617533844.989772) can0 18FFF4E5#12009E0F1202018C
(1617533844.994211) can0 18FEF4E5#68103C0F00000000
(1617533845.039330) can0 18FFF4E5#10009E0F1202018C
(1617533845.044208) can0 18FEF4E5#68103C0F00000000
(1617533845.089983) can0 18FFF4E5#12009E0F1202018C
(1617533845.094179) can0 18FEF4E5#68103C0F00000000
(1617533845.139316) can0 18FFF4E5#12009E0F1202018C
(1617533845.144214) can0 18FEF4E5#68103C0F00000000
(1617533845.189857) can0 18FFF4E5#12009E0F1202018C
(1617533845.194259) can0 18FEF4E5#68103C0F00000000
(1617533845.239495) can0 18FFF4E5#12009E0F1202018C
(1617533845.244301) can0 18FEF4E5#68103C0F00000000
(1617533845.290013) can0 18FFF4E5#12009E0F1202018C
(1617533845.294349) can0 18FEF4E5#68103C0F00000000
(1617533845.339473) can0 18FFF4E5#12009E0F1202018C
(1617533845.344387) can0 18FEF4E5#68103C0F00000000
(1617533845.390047) can0 18FFF4E5#12009E0F1202018C
(1617533845.394464) can0 18FEF4E5#68103C0F00000000
(1617533845.439557) can0 18FFF4E5#12009E0F1202018C
(1617533845.444473) can0 18FEF4E5#68103C0F00000000
(1617533845.490130) can0 18FFF4E5#12009E0F1202018C
(1617533845.494516) can0 18FEF4E5#68103C0F00000000
(1617533845.539868) can0 18FFF4E5#12009E0F1202018C
(1617533845.544561) can0 18FEF4E5#68103C0F00000000
(1617533845.590211) can0 18FFF4E5#12009E0F1202018C
(1617533845.594611) can0 18FEF4E5#68103C0F00000000
(1617533845.639738) can0 18FFF4E5#12009E0F1202018C
(1617533845.644652) can0 18FEF4E5#68103C0F00000000
(1617533845.690312) can0 18FFF4E5#12009E0F1202018C
(1617533845.694721) can0 18FEF4E5#68103C0F00000000
(1617533845.739826) can0 18FFF4E5#12009E0F1202018C
(1617533845.744739) can0 18FEF4E5#68103C0F00000000
(1617533845.790459) can0 18FFF4E5#12009E0F1202018C
(1617533845.794829) can0 18FEF4E5#68103C0F00000000
(1617533845.839992) can0 18FFF4E5#12009E0F1202018C
(1617533845.844929) can0 18FEF4E5#68103C0F00000000
(1617533845.890502) can0 18FFF4E5#12009E0F1202018C
(1617533845.894923) can0 18FEF4E5#68103C0F00000000
(1617533845.940003) can0 18FFF4E5#12009E0F1202018C
(1617533845.944914) can0 18FEF4E5#68103C0F00000000
(1617533845.990644) can0 18FFF4E5#12009E0F1202018C
(1617533845.994984) can0 18FEF4E5#68103C0F00000000
(1617533846.040099) can0 18FFF4E5#12009E0F1202018C
(1617533846.045014) can0 18FEF4E5#68103C0F00000000
(1617533846.090664) can0 18FFF4E5#12009E0F1202018C
(1617533846.095051) can0 18FEF4E5#68103C0F00000000
(1617533846.140177) can0 18FFF4E5#12009E0F1202018C
(1617533846.145101) can0 18FEF4E5#68103C0F00000000
(1617533846.190752) can0 18FFF4E5#12009E0F1202018C
(1617533846.195139) can0 18FEF4E5#68103C0F00000000
(1617533846.240277) can0 18FFF4E5#12009E0F1202018C
(1617533846.245186) can0 18FEF4E5#68103C0F00000000
(1617533846.290848) can0 18FFF4E5#12009E0F1202018C
(1617533846.295251) can0 18FEF4E5#68103C0F00000000
(1617533846.340359) can0 18FFF4E5#12009E0F1202018C
(1617533846.345295) can0 18FEF4E5#68103C0F00000000
(1617533846.390927) can0 18FFF4E5#12009E0F1202018C
(1617533846.395330) can0 18FEF4E5#68103C0F00000000
(1617533846.440607) can0 18FFF4E5#12009E0F1202018C
(1617533846.445366) can0 18FEF4E5#68103C0F00000000
(1617533846.491017) can0 18FFF4E5#12009E0F1202018C
(1617533846.495418) can0 18FEF4E5#68103C0F00000000
(1617533846.540527) can0 18FFF4E5#12009E0F1202018C
(1617533846.545460) can0 18FEF4E5#68103C0F00000000
(1617533846.591102) can0 18FFF4E5#12009E0F1202018C
(1617533846.595542) can0 18FEF4E5#68103C0F00000000
(1617533846.640727) can0 18FFF4E5#12009E0F1202018C
(1617533846.645595) can0 18FEF4E5#68103C0F00000000
(1617533846.691304) can0 18FFF4E5#12009E0F1202018C
(1617533846.695901) can0 18FEF4E5#68103C0F00000000
(1617533846.740713) can0 18FFF4E5#12009E0F1202018C
(1617533846.745629) can0 18FEF4E5#68103C0F00000000
(1617533846.791283) can0 18FFF4E5#12009E0F1202018C
(1617533846.795674) can0 18FEF4E5#68103C0F00000000
(1617533846.840803) can0 18FFF4E5#12009E0F1202018C
(1617533846.845716) can0 18FEF4E5#68103C0F00000000
(1617533846.891545) can0 18FFF4E5#12009E0F1202018C
(1617533846.895761) can0 18FEF4E5#68103C0F00000000
(1617533846.940890) can0 18FFF4E5#12009E0F1202018C
(1617533846.945804) can0 18FEF4E5#68103C0F00000000
(1617533846.991462) can0 18FFF4E5#12009E0F1202018C
(1617533846.995849) can0 18FEF4E5#68103C0F00000000
(1617533847.040980) can0 18FFF4E5#12009E0F1202018C
(1617533847.045938) can0 18FEF4E5#68103C0F00000000
(1617533847.091580) can0 18FFF4E5#12009E0F1202018C
(1617533847.095936) can0 18FEF4E5#68103C0F00000000
(1617533847.141070) can0 18FFF4E5#12009E0F1202018C
(1617533847.145981) can0 18FEF4E5#68103C0F00000000
(1617533847.191644) can0 18FFF4E5#12009E0F1202018C
(1617533847.196024) can0 18FEF4E5#68103C0F00000000
(1617533847.241162) can0 18FFF4E5#12009E0F1202018C
(1617533847.246069) can0 18FEF4E5#68103C0F00000000
(1617533847.291730) can0 18FFF4E5#12009E0F1202018C
(1617533847.296114) can0 18FEF4E5#68103C0F00000000
(1617533847.341456) can0 18FFF4E5#12009E0F1202018C
(1617533847.346157) can0 18FEF4E5#68103C0F00000000
(1617533847.391816) can0 18FFF4E5#12009E0F1202018C
(1617533847.396205) can0 18FEF4E5#68103C0F00000000
(1617533847.441437) can0 18FFF4E5#12009E0F1202018C
(1617533847.446337) can0 18FEF4E5#68103C0F00000000
(1617533847.491978) can0 18FFF4E5#12009E0F1202018C
(1617533847.496332) can0 18FEF4E5#68103C0F00000000
(1617533847.541463) can0 18FFF4E5#12009E0F1202018C
(1617533847.546372) can0 18FEF4E5#68103C0F00000000
(1617533847.592017) can0 18FFF4E5#12009E0F1202018C
(1617533847.596377) can0 18FEF4E5#68103C0F00000000
(1617533847.641515) can0 18FFF4E5#12009E0F1202018C
(1617533847.646423) can0 18FEF4E5#68103C0F00000000
(1617533847.692089) can0 18FFF4E5#12009E0F1202018C
(1617533847.696468) can0 18FEF4E5#68103C0F00000000
(1617533847.741600) can0 18FFF4E5#12009E0F1202018C
(1617533847.746515) can0 18FEF4E5#68103C0F00000000
(1617533847.792247) can0 18FFF4E5#12009E0F1202018C
(1617533847.796555) can0 18FEF4E5#68103C0F00000000
(1617533847.841689) can0 18FFF4E5#12009E0F1202018C
(1617533847.846602) can0 18FEF4E5#68103C0F00000000
(1617533847.892266) can0 18FFF4E5#12009E0F1202018C
(1617533847.896642) can0 18FEF4E5#68103C0F00000000
(1617533847.941775) can0 18FFF4E5#12009E0F1202018C
(1617533847.946688) can0 18FEF4E5#68103C0F00000000
(1617533847.992345) can0 18FFF4E5#10009E0F1202018C
(1617533847.996733) can0 18FEF4E5#68103C0F00000000
(1617533848.041863) can0 18FFF4E5#12009E0F1202018C
(1617533848.046780) can0 18FEF4E5#68103C0F00000000
(1617533848.092441) can0 18FFF4E5#12009E0F1202018C
(1617533848.096825) can0 18FEF4E5#68103C0F00000000
(1617533848.141959) can0 18FFF4E5#12009E0F1202018C
(1617533848.146864) can0 18FEF4E5#68103C0F00000000
(1617533848.192533) can0 18FFF4E5#12009E0F1202018C
(1617533848.196912) can0 18FEF4E5#68103C0F00000000
(1617533848.242299) can0 18FFF4E5#12009E0F1202018C
(1617533848.246996) can0 18FEF4E5#68103C0F00000000
(1617533848.292720) can0 18FFF4E5#12009E0F1202018C
(1617533848.297281) can0 18FEF4E5#68103C0F00000000
(1617533848.342133) can0 18FFF4E5#12009E0F1202018C
(1617533848.347046) can0 18FEF4E5#68103C0F00000000
(1617533848.392713) can0 18FFF4E5#12009E0F1202018C
(1617533848.397088) can0 18FEF4E5#68103C0F00000000
(1617533848.442258) can0 18FFF4E5#12009E0F1202018C
(1617533848.447157) can0 18FEF4E5#68103C0F00000000
(1617533848.492796) can0 18FFF4E5#12009E0F1202018C
(1617533848.497221) can0 18FEF4E5#68103C0F00000000
(1617533848.542312) can0 18FFF4E5#12009E0F1202018C
(1617533848.547219) can0 18FEF4E5#68103C0F00000000
(1617533848.592875) can0 18FFF4E5#12009E0F1202018C
(1617533848.597266) can0 18FEF4E5#68103C0F00000000
(1617533848.642392) can0 18FFF4E5#12009E0F1202018C
(1617533848.647313) can0 18FEF4E5#68103C0F00000000
(1617533848.693129) can0 18FFF4E5#12009E0F1202018C
(1617533848.697355) can0 18FEF4E5#68103C0F00000000
(1617533848.742483) can0 18FFF4E5#12009E0F1202018C
(1617533848.747401) can0 18FEF4E5#68103C0F00000000
(1617533848.793052) can0 18FFF4E5#12009E0F1202018C
(1617533848.797447) can0 18FEF4E5#68103C0F00000000
(1617533848.842571) can0 18FFF4E5#12009E0F1202018C
(1617533848.847487) can0 18FEF4E5#68103C0F00000000
(1617533848.893134) can0 18FFF4E5#12009E0F1202018C
(1617533848.897533) can0 18FEF4E5#68103C0F00000000
(1617533848.942665) can0 18FFF4E5#12009E0F1202018C
(1617533848.947574) can0 18FEF4E5#68103C0F00000000
(1617533848.993229) can0 18FFF4E5#12009E0F1202018C
(1617533848.997620) can0 18FEF4E5#68103C0F00000000
(1617533849.042739) can0 18FFF4E5#12009E0F1202018C
(1617533849.047668) can0 18FEF4E5#68103C0F00000000
(1617533849.093323) can0 18FFF4E5#12009E0F1202018C
(1617533849.097713) can0 18FEF4E5#68103C0F00000000
(1617533849.143053) can0 18FFF4E5#12009E0F1202018C
(1617533849.147764) can0 18FEF4E5#68103C0F00000000
(1617533849.193395) can0 18FFF4E5#12009E0F1202018C
(1617533849.197809) can0 18FEF4E5#68103C0F00000000
(1617533849.242926) can0 18FFF4E5#12009E0F1202018C
(1617533849.247866) can0 18FEF4E5#68103C0F00000000
(1617533849.293493) can0 18FFF4E5#12009E0F1202018C
(1617533849.297909) can0 18FEF4E5#68103C0F00000000
(1617533849.343007) can0 18FFF4E5#12009E0F1202018C
(1617533849.347951) can0 18FEF4E5#68103C0F00000000
(1617533849.393583) can0 18FFF4E5#12009E0F1202018C
(1617533849.397993) can0 18FEF4E5#68103C0F00000000
(1617533849.443106) can0 18FFF4E5#12009E0F1202018C
(1617533849.448038) can0 18FEF4E5#68103C0F00000000
(1617533849.493680) can0 18FFF4E5#12009E0F1202018C
(1617533849.498069) can0 18FEF4E5#68103C0F00000000
(1617533849.543189) can0 18FFF4E5#12009E0F1202018C
(1617533849.548109) can0 18FEF4E5#68103C0F00000000
(1617533849.593826) can0 18FFF4E5#12009E0F1202018C
(1617533849.598153) can0 18FEF4E5#68103C0F00000000
(1617533849.643280) can0 18FFF4E5#12009E0F1202018C
(1617533849.648193) can0 18FEF4E5#68103C0F00000000
(1617533849.693848) can0 18FFF4E5#12009E0F1202018C
(1617533849.698244) can0 18FEF4E5#68103C0F00000000
(1617533849.743366) can0 18FFF4E5#12009E0F1202018C
(1617533849.748285) can0 18FEF4E5#68103C0F00000000
(1617533849.793943) can0 18FFF4E5#12009E0F1202018C
(1617533849.798326) can0 18FEF4E5#68103C0F00000000
(1617533849.843454) can0 18FFF4E5#12009E0F1202018C
(1617533849.848375) can0 18FEF4E5#68103C0F00000000
(1617533849.894031) can0 18FFF4E5#12009E0F1202018C
(1617533849.898417) can0 18FEF4E5#68103C0F00000000
(1617533849.943543) can0 18FFF4E5#12009E0F1202018C
(1617533849.948466) can0 18FEF4E5#68103C0F00000000
(1617533849.994115) can0 18FFF4E5#12009E0F1202018C
(1617533849.998509) can0 18FEF4E5#68103C0F00000000
(1617533850.043792) can0 18FFF4E5#12009E0F1202018C
(1617533850.048552) can0 18FEF4E5#68103C0F00000000
(1617533850.094200) can0 18FFF4E5#12009E0F1202018C
(1617533850.098597) can0 18FEF4E5#68103C0F00000000
(1617533850.143722) can0 18FFF4E5#12009E0F1202018C
(1617533850.148643) can0 18FEF4E5#68103C0F00000000
(1617533850.194294) can0 18FFF4E5#12009E0F1202018C
(1617533850.198684) can0 18FEF4E5#68103C0F00000000
(1617533850.243805) can0 18FFF4E5#12009E0F1202018C
(1617533850.248726) can0 18FEF4E5#68103C0F00000000
(1617533850.294381) can0 18FFF4E5#12009E0F1202018C
(1617533850.298770) can0 18FEF4E5#68103C0F00000000
(1617533850.343896) can0 18FFF4E5#12009E0F1202018C
(1617533850.348817) can0 18FEF4E5#68103C0F00000000
(1617533850.394472) can0 18FFF4E5#12009E0F1202018C
(1617533850.398864) can0 18FEF4E5#68103C0F00000000
(1617533850.443984) can0 18FFF4E5#12009E0F1202018C
(1617533850.448960) can0 18FEF4E5#68103C0F00000000
(1617533850.494735) can0 18FFF4E5#12009E0F1202018C
(1617533850.498961) can0 18FEF4E5#68103C0F00000000
(1617533850.544077) can0 18FFF4E5#12009E0F1202018C
(1617533850.548994) can0 18FEF4E5#68103C0F00000000
(1617533850.594651) can0 18FFF4E5#12009E0F1202018C
(1617533850.599040) can0 18FEF4E5#68103C0F00000000
(1617533850.644166) can0 18FFF4E5#12009E0F1202018C
(1617533850.649089) can0 18FEF4E5#68103C0F00000000
(1617533850.694737) can0 18FFF4E5#12009E0F1202018C
(1617533850.699127) can0 18FEF4E5#68103C0F00000000
(1617533850.744254) can0 18FFF4E5#12009E0F1202018C
(1617533850.749173) can0 18FEF4E5#68103C0F00000000
(1617533850.794833) can0 18FFF4E5#12009E0F1202018C
(1617533850.799219) can0 18FEF4E5#68103C0F00000000
(1617533850.844341) can0 18FFF4E5#12009E0F1202018C
(1617533850.849265) can0 18FEF4E5#68103C0F00000000
(1617533850.894916) can0 18FFF4E5#12009E0F1202018C
(1617533850.899306) can0 18FEF4E5#68103C0F00000000
(1617533850.944643) can0 18FFF4E5#12009E0F1202018C
(1617533850.949349) can0 18FEF4E5#68103C0F00000000
(1617533850.995010) can0 18FFF4E5#12009E0F1202018C
(1617533850.999398) can0 18FEF4E5#68103C0F00000000
(1617533851.044518) can0 18FFF4E5#12009E0F1202018C
(1617533851.049438) can0 18FEF4E5#68103C0F00000000
(1617533851.095098) can0 18FFF4E5#12009E0F1202018C
(1617533851.099481) can0 18FEF4E5#68103C0F00000000
(1617533851.144616) can0 18FFF4E5#12009E0F1202018C
(1617533851.149527) can0 18FEF4E5#68103C0F00000000
(1617533851.195184) can0 18FFF4E5#12009E0F1202018C
(1617533851.199574) can0 18FEF4E5#68103C0F00000000
(1617533851.244702) can0 18FFF4E5#12009E0F1202018C
(1617533851.249617) can0 18FEF4E5#68103C0F00000000
(1617533851.295284) can0 18FFF4E5#12009E0F1202018C
(1617533851.299659) can0 18FEF4E5#68103C0F00000000
(1617533851.344785) can0 18FFF4E5#12009E0F1202018C
(1617533851.349705) can0 18FEF4E5#68103C0F00000000
(1617533851.395426) can0 18FFF4E5#12009E0F1202018C
(1617533851.399751) can0 18FEF4E5#68103C0F00000000
(1617533851.444887) can0 18FFF4E5#12009E0F1202018C
(1617533851.449795) can0 18FEF4E5#68103C0F00000000
(1617533851.495448) can0 18FFF4E5#12009E0F1202018C
(1617533851.499837) can0 18FEF4E5#68103C0F00000000
(1617533851.544960) can0 18FFF4E5#12009E0F1202018C
(1617533851.549883) can0 18FEF4E5#68103C0F00000000
(1617533851.595545) can0 18FFF4E5#12009E0F1202018C
(1617533851.599925) can0 18FEF4E5#68103C0F00000000
(1617533851.645056) can0 18FFF4E5#12009E0F1202018C
(1617533851.649971) can0 18FEF4E5#68103C0F00000000
(1617533851.695635) can0 18FFF4E5#12009E0F1202018C
(1617533851.700015) can0 18FEF4E5#68103C0F00000000
(1617533851.745149) can0 18FFF4E5#12009E0F1202018C
(1617533851.750083) can0 18FEF4E5#68103C0F00000000
