(1619555212.868862) can0 105#000000000020459A
(1619555212.868862) can0 101#0000002049440151
(1619555212.868862) can0 431#0000000000000000
(1619555212.868862) can0 1A0#00C0C64000000138
(1619555212.878559) can0 105#0000000000204699
(1619555212.888492) can0 105#0000000000204798
(1619555212.898550) can0 105#0000000000205887
(1619555212.868862) can0 101#0000002049440250
(1619555212.868862) can0 431#0000000000000000
(1619555212.868862) can0 1A0#00C0C64000000237
(1619555212.908422) can0 105#0000000000205986
(1619555212.908566) can0 106#003E0000000005BC
(1619555212.908804) can0 107#0096000000000000
(1619555212.868862) can0 101#000000204944034F
(1619555212.868862) can0 431#0000000000000000
(1619555212.868862) can0 1A0#00C0C64000000336
(1619555212.918500) can0 105#0000000000205A85
(1619555212.928515) can0 105#0000000000205B84
(1619555212.938466) can0 105#0000000000205C83
(1619555212.868862) can0 101#000000204944044E
(1619555212.868862) can0 431#0000000000000000
(1619555212.868862) can0 1A0#00C0C64000000435
(1619555212.948432) can0 105#0000000000205D82
(1619555212.958490) can0 105#0000000000205E81
(1619555212.958594) can0 106#003E0000000006BB
(1619555212.958824) can0 107#009B000000910000
(1619555212.868862) can0 101#000000204944054D
(1619555212.868862) can0 431#0000000000000000
(1619555212.868862) can0 1A0#00C0C64000000534
(1619555212.968461) can0 105#0000000000205F80
(1619555212.978378) can0 105#000000000020508F
(1619555212.868862) can0 101#000000204944064C
(1619555212.868862) can0 431#0000000000000000
(1619555212.868862) can0 1A0#00C0C64000000633
(1619555212.988500) can0 105#000000000020518E
(1619555212.998432) can0 105#000000000020528D
(1619555213.008478) can0 105#000000000020538C
(1619555213.008573) can0 106#003E0000000007BA
(1619555212.868862) can0 101#000000204944074B
(1619555212.868862) can0 431#0000000000000000
(1619555212.868862) can0 1A0#00C0C64000000732
(1619555213.008830) can0 107#009B000000910000
(1619555213.018522) can0 105#00000000000054AB
(1619555213.028425) can0 105#000000000080552A
(1619555213.038439) can0 105#0000000000805629
(1619555213.048453) can0 105#0000000000805728
(1619555212.868862) can0 101#000000204944084A
(1619555212.868862) can0 431#0000000000000000
(1619555212.868862) can0 1A0#00C0C64000000831
(1619555213.058422) can0 105#0000000000805827
(1619555213.058579) can0 106#003E0000000008B9
(1619555213.058819) can0 107#009B000000000000
(1619555213.068430) can0 105#0000000000805926
(1619555212.868862) can0 101#0000002049440949
(1619555212.868862) can0 431#0000000000000000
(1619555212.868862) can0 1A0#00C0C64000000930
(1619555213.078427) can0 105#0000000000805A25
(1619555213.088500) can0 105#0000000000805B24
(1619555213.098458) can0 105#0000000000805C23
(1619555213.108433) can0 105#0000000000005DA2
(1619555212.868862) can0 101#0000002049440A48
(1619555212.868862) can0 431#0000000000000000
(1619555212.868862) can0 1A0#00C0C64000000A2F
(1619555213.108610) can0 106#003E0000000009B8
(1619555212.868862) can0 101#0000002049440B47
(1619555212.868862) can0 431#0000000000000000
(1619555212.868862) can0 1A0#00C0C64000000B2E
(1619555213.108818) can0 107#00C4000000000000
(1619555212.868862) can0 101#0000002049440C46
(1619555212.868862) can0 431#0000000000000000
(1619555212.868862) can0 1A0#00C0C64000000C2D
(1619555213.118467) can0 105#0000000000005EA1
(1619555213.128480) can0 105#0000000000005FA0
(1619555212.868862) can0 101#0000002049440D45
(1619555212.868862) can0 431#0000000000000000
(1619555212.868862) can0 1A0#00C0C64000000D2C
(1619555213.138525) can0 105#00000000000050AF
(1619555213.148450) can0 105#00000000000051AE
(1619555212.868862) can0 101#0000002049440E44
(1619555212.868862) can0 431#0000000000000000
(1619555212.868862) can0 1A0#00C0C64000000E2B
(1619555213.158497) can0 105#00000000000052AD
(1619555213.158605) can0 106#003E000000000AB7
(1619555212.868862) can0 101#0000002049440F43
(1619555212.868862) can0 431#0000000000000000
(1619555212.868862) can0 1A0#00C0C64000000F2A
(1619555213.158983) can0 107#00D8000000000000
(1619555212.868862) can0 101#0000002049440052
(1619555212.868862) can0 431#0000000000000000
(1619555212.868862) can0 1A0#00C0C64000000039
(1619555213.168479) can0 105#0013000000005399
(1619555213.178484) can0 105#001100000000549A
(1619555212.868862) can0 101#0000002049440151
(1619555212.868862) can0 431#0000000000000000
(1619555212.868862) can0 1A0#00C0C64000000138
(1619555213.188414) can0 105#000F00000000559B
(1619555213.198576) can0 105#000E00000000569B
(1619555212.868862) can0 101#0000002049440250
(1619555212.868862) can0 431#0000000000000000
(1619555212.868862) can0 1A0#00C0C64000000237
(1619555213.208485) can0 105#000C00000000579C
(1619555213.208550) can0 106#003E000000000BB6
(1619555212.868862) can0 101#000000204944034F
(1619555212.868862) can0 431#0000000000000000
(1619555212.868862) can0 1A0#00C0C64000000336
(1619555213.208840) can0 107#00ED000000000000
(1619555213.218465) can0 105#000B00000000589C
(1619555213.228385) can0 105#000A00000000599C
(1619555212.868862) can0 101#000000204944044E
(1619555212.868862) can0 431#0000000000000000
(1619555212.868862) can0 1A0#00C0C64000000435
(1619555213.238499) can0 105#0008000000005A9D
(1619555212.868862) can0 101#000000204944054D
(1619555212.868862) can0 431#0000000000000000
(1619555212.868862) can0 1A0#00C0C64000000534
(1619555213.248543) can0 105#0008000000005B9C
(1619555213.258451) can0 105#0007000000005C9C
(1619555212.868862) can0 101#000000204944064C
(1619555212.868862) can0 431#0000000000000000
(1619555212.868862) can0 1A0#00C0C64000000633
(1619555213.258716) can0 106#003E000000000CB5
(1619555213.258886) can0 107#0101000000000000
(1619555212.868862) can0 101#000000204944074B
(1619555212.868862) can0 431#0000000000000000
(1619555212.868862) can0 1A0#00C0C64000000732
(1619555213.268426) can0 105#0006000000005D9C
(1619555213.278479) can0 105#0005000000005E9C
(1619555212.868862) can0 101#000000204944084A
(1619555212.868862) can0 431#0000000000000000
(1619555212.868862) can0 1A0#00C0C64000000831
(1619555213.288446) can0 105#0005000000005F9B
(1619555213.298598) can0 105#00040000000050AB
(1619555212.868862) can0 101#0000002049440949
(1619555212.868862) can0 431#0000000000000000
(1619555212.868862) can0 1A0#00C0C64000000930
(1619555213.308500) can0 105#00040000000051AA
(1619555212.868862) can0 101#0000002049440A48
(1619555212.868862) can0 431#0000000000000000
(1619555212.868862) can0 1A0#00C0C64000000A2F
(1619555213.308566) can0 106#003E000000000DB4
(1619555213.308847) can0 107#0115000000000000
(1619555212.868862) can0 101#0000002049440B47
(1619555212.868862) can0 431#0000000000000000
(1619555212.868862) can0 1A0#00C0C64000000B2E
(1619555213.318431) can0 105#00030000000052AA
(1619555213.328459) can0 105#00030000000053A9
(1619555212.868862) can0 101#0000002049440C46
(1619555212.868862) can0 431#0000000000000000
(1619555212.868862) can0 1A0#00C0C64000000C2D
(1619555213.338448) can0 105#00030000000054A8
(1619555213.348507) can0 105#00020000000055A8
(1619555212.868862) can0 101#0000002049440D45
(1619555212.868862) can0 431#0000000000000000
(1619555212.868862) can0 1A0#00C0C64000000D2C
(1619555213.358454) can0 105#00020000000056A7
(1619555212.868862) can0 101#0000002049440E44
(1619555212.868862) can0 431#0000000000000000
(1619555212.868862) can0 1A0#00C0C64000000E2B
(1619555213.358722) can0 106#003E000000000EB3
(1619555213.358832) can0 107#012A000000000000
(1619555212.868862) can0 101#0000002049440F43
(1619555212.868862) can0 431#0000000000000000
(1619555212.868862) can0 1A0#00C0C64000000F2A
(1619555213.368532) can0 105#00020000000057A6
(1619555213.378461) can0 105#00020000000058A5
(1619555212.868862) can0 101#0000002049440052
(1619555212.868862) can0 431#0000000000000000
(1619555212.868862) can0 1A0#00C0C64000000039
(1619555213.388458) can0 105#00010000000059A5
(1619555213.398532) can0 105#0001000000005AA4
(1619555212.868862) can0 101#0000002049440151
(1619555212.868862) can0 431#0000000000000000
(1619555212.868862) can0 1A0#00C0C64000000138
(1619555213.408473) can0 105#0001000000005BA3
(1619555212.868862) can0 101#0000002049440250
(1619555212.868862) can0 431#0000000000000000
(1619555212.868862) can0 1A0#00C0C64000000237
(1619555213.408587) can0 106#003E000000000FB2
(1619555213.408827) can0 107#013A000000000000
(1619555212.868862) can0 101#000000204944034F
(1619555212.868862) can0 431#0000000000000000
(1619555212.868862) can0 1A0#00C0C64000000336
(1619555213.418489) can0 105#0001000000005CA2
(1619555213.428517) can0 105#0001000000005DA1
(1619555212.868862) can0 101#000000204944044E
(1619555212.868862) can0 431#0000000000000000
(1619555212.868862) can0 1A0#00C0C64000000435
(1619555213.438488) can0 105#0001000000005EA0
(1619555212.868862) can0 101#000000204944054D
(1619555212.868862) can0 431#0000000000000000
(1619555212.868862) can0 1A0#00C0C64000000534
(1619555213.448500) can0 105#0001000000005F9F
(1619555213.458458) can0 105#00010000000050AE
(1619555212.868862) can0 101#000000204944064C
(1619555212.868862) can0 431#0000000000000000
(1619555212.868862) can0 1A0#00C0C64000000633
(1619555213.458758) can0 106#003E0000000000C1
(1619555213.458833) can0 107#0152000000000000
(1619555212.868862) can0 101#000000204944074B
(1619555212.868862) can0 431#0000000000000000
(1619555212.868862) can0 1A0#00C0C64000000732
(1619555213.468530) can0 105#00010000000051AD
(1619555213.478521) can0 105#00000000000052AD
(1619555212.868862) can0 101#000000204944084A
(1619555212.868862) can0 431#0000000000000000
(1619555212.868862) can0 1A0#00C0C64000000831
(1619555213.488461) can0 105#00000000000053AC
(1619555212.868862) can0 101#0000002049440949
(1619555212.868862) can0 431#0000000000000000
(1619555212.868862) can0 1A0#00C0C64000000930
(1619555213.498501) can0 105#00000000000054AB
(1619555213.508529) can0 105#00000000000055AA
(1619555212.868862) can0 101#0000002049440A48
(1619555212.868862) can0 431#0000000000000000
(1619555212.868862) can0 1A0#00C0C64000000A2F
(1619555213.508599) can0 106#003E0000000001C0
(1619555213.508883) can0 107#0165000000000000
(1619555212.868862) can0 101#0000002049440B47
(1619555212.868862) can0 431#0000000000000000
(1619555212.868862) can0 1A0#00C0C64000000B2E
(1619555213.518441) can0 105#00000000000056A9
(1619555213.528436) can0 105#00000000000057A8
(1619555212.868862) can0 101#0000002049440C46
(1619555212.868862) can0 431#0000000000000000
(1619555212.868862) can0 1A0#00C0C64000000C2D
(1619555213.538541) can0 105#00000000000058A7
(1619555213.548483) can0 105#00000000000059A6
(1619555212.868862) can0 101#0000002049440D45
(1619555212.868862) can0 431#0000000000000000
(1619555212.868862) can0 1A0#00C0C64000000D2C
(1619555213.558480) can0 105#0000000000005AA5
(1619555213.558741) can0 106#003E0000000002BF
(1619555212.868862) can0 101#0000002049440E44
(1619555212.868862) can0 431#0000000000000000
(1619555212.868862) can0 1A0#00C0C64000000E2B
(1619555213.558926) can0 107#0179000000000000
(1619555213.568514) can0 105#0000000000005BA4
(1619555212.868862) can0 101#0000002049440F43
(1619555212.868862) can0 431#0000000000000000
(1619555212.868862) can0 1A0#00C0C64000000F2A
(1619555213.578452) can0 105#0000000000005CA3
(1619555212.868862) can0 101#0000002049440052
(1619555212.868862) can0 431#0000000000000000
(1619555212.868862) can0 1A0#00C0C64000000039
(1619555213.588458) can0 105#0000000000005DA2
(1619555213.598533) can0 105#0000000000005EA1
(1619555212.868862) can0 101#0000002049440151
(1619555212.868862) can0 431#0000000000000000
(1619555212.868862) can0 1A0#00C0C64000000138
(1619555213.608472) can0 105#0000000000005FA0
(1619555213.608660) can0 106#003E0000000003BE
(1619555212.868862) can0 101#0000002049440250
(1619555212.868862) can0 431#0000000000000000
(1619555212.868862) can0 1A0#00C0C64000000237
(1619555213.608871) can0 107#0186000000000000
(1619555213.618483) can0 105#00000000000050AF
(1619555212.868862) can0 101#000000204944034F
(1619555212.868862) can0 431#0000000000000000
(1619555212.868862) can0 1A0#00C0C64000000336
(1619555213.628495) can0 105#00000000000051AE
(1619555213.638489) can0 105#00000000000052AD
(1619555212.868862) can0 101#000000204944044E
(1619555212.868862) can0 431#0000000000000000
(1619555212.868862) can0 1A0#00C0C64000000435
(1619555213.648541) can0 105#00000000000053AC
(1619555213.658456) can0 105#00000000000054AB
(1619555212.868862) can0 101#000000204944054D
(1619555212.868862) can0 431#0000000000000000
(1619555212.868862) can0 1A0#00C0C64000000534
(1619555213.658659) can0 106#003E0000000004BD
(1619555213.658862) can0 107#0198000000000000
(1619555212.868862) can0 101#000000204944064C
(1619555212.868862) can0 431#0000000000000000
(1619555212.868862) can0 1A0#00C0C64000000633
(1619555213.668491) can0 105#00000000000055AA
(1619555213.678479) can0 105#00000000000056A9
(1619555212.868862) can0 101#000000204944074B
(1619555212.868862) can0 431#0000000000000000
(1619555212.868862) can0 1A0#00C0C64000000732
(1619555213.688488) can0 105#00000000000057A8
(1619555213.698476) can0 105#00000000000058A7
(1619555212.868862) can0 101#000000204944084A
(1619555212.868862) can0 431#0000000000000000
(1619555212.868862) can0 1A0#00C0C64000000831
(1619555213.708440) can0 105#00000000000059A6
(1619555213.708679) can0 106#003E0000000005BC
(1619555212.868862) can0 101#0000002049440949
(1619555212.868862) can0 431#0000000000000000
(1619555212.868862) can0 1A0#00C0C64000000930
(1619555213.708869) can0 107#01A9000000000000
(1619555213.718503) can0 105#0000000000005AA5
(1619555212.868862) can0 101#0000002049440A48
(1619555212.868862) can0 431#0000000000000000
(1619555212.868862) can0 1A0#00C0C64000000A2F
(1619555213.728472) can0 105#0000000000005BA4
(1619555213.738492) can0 105#0000000000005CA3
(1619555212.868862) can0 101#0000002049440B47
(1619555212.868862) can0 431#0000000000000000
(1619555212.868862) can0 1A0#00C0C64000000B2E
(1619555213.748532) can0 105#0000000000005DA2
(1619555213.758534) can0 105#0000000000005EA1
(1619555212.868862) can0 101#0000002049440C46
(1619555212.868862) can0 431#0000000000000000
(1619555212.868862) can0 1A0#00C0C64000000C2D
(1619555213.758611) can0 106#003E0000000006BB
(1619555213.758887) can0 107#01B6000000000000
(1619555212.868862) can0 101#0000002049440D45
(1619555212.868862) can0 431#0000000000000000
(1619555212.868862) can0 1A0#00C0C64000000D2C
(1619555213.768522) can0 105#0000000000005FA0
(1619555213.778509) can0 105#00000000000050AF
(1619555212.868862) can0 101#0000002049440E44
(1619555212.868862) can0 431#0000000000000000
(1619555212.868862) can0 1A0#00C0C64000000E2B
(1619555213.788531) can0 105#00000000000051AE
(1619555213.798442) can0 105#00000000000052AD
(1619555212.868862) can0 101#0000002049440F43
(1619555212.868862) can0 431#0000000000000000
(1619555212.868862) can0 1A0#00C0C64000000F2A
(1619555213.808518) can0 105#00000000000053AC
(1619555212.868862) can0 101#0000002049440052
(1619555212.868862) can0 431#0000000000000000
(1619555212.868862) can0 1A0#00C0C64000000039
(1619555213.808618) can0 106#003E0000000007BA
(1619555213.808893) can0 107#01CC000000000000
(1619555212.868862) can0 101#0000002049440151
(1619555212.868862) can0 431#0000000000000000
(1619555212.868862) can0 1A0#00C0C64000000138
(1619555213.818566) can0 105#00000000000054AB
(1619555213.828405) can0 105#00000000000055AA
(1619555212.868862) can0 101#0000002049440250
(1619555212.868862) can0 431#0000000000000000
(1619555212.868862) can0 1A0#00C0C64000000237
(1619555213.838551) can0 105#00000000000056A9
(1619555213.848468) can0 105#00000000000057A8
(1619555212.868862) can0 101#000000204944034F
(1619555212.868862) can0 431#0000000000000000
(1619555212.868862) can0 1A0#00C0C64000000336
(1619555213.858459) can0 105#00000000000058A7
(1619555213.858777) can0 106#003E0000000008B9
(1619555212.868862) can0 101#000000204944044E
(1619555212.868862) can0 431#0000000000000000
(1619555212.868862) can0 1A0#00C0C64000000435
(1619555213.858893) can0 107#01E0000000000000
(1619555213.868449) can0 105#00000000000059A6
(1619555212.868862) can0 101#000000204944054D
(1619555212.868862) can0 431#0000000000000000
(1619555212.868862) can0 1A0#00C0C64000000534
(1619555213.878560) can0 105#0000000000005AA5
(1619555213.888484) can0 105#0000000000005BA4
(1619555212.868862) can0 101#000000204944064C
(1619555212.868862) can0 431#0000000000000000
(1619555212.868862) can0 1A0#00C0C64000000633
(1619555213.898445) can0 105#0000000000005CA3
(1619555212.868862) can0 101#000000204944074B
(1619555212.868862) can0 431#0000000000000000
(1619555212.868862) can0 1A0#00C0C64000000732
(1619555213.908499) can0 105#0000000000005DA2
(1619555213.908670) can0 106#003E0000000009B8
(1619555212.868862) can0 101#000000204944084A
(1619555212.868862) can0 431#0000000000000000
(1619555212.868862) can0 1A0#00C0C64000000831
(1619555213.908953) can0 107#01EC000000000000
(1619555213.918530) can0 105#0000000000005EA1
(1619555212.868862) can0 101#0000002049440949
(1619555212.868862) can0 431#0000000000000000
(1619555212.868862) can0 1A0#00C0C64000000930
(1619555213.928638) can0 105#0000000000005FA0
(1619555213.938533) can0 105#00000000000050AF
(1619555212.868862) can0 101#0000002049440A48
(1619555212.868862) can0 431#0000000000000000
(1619555212.868862) can0 1A0#00C0C64000000A2F
(1619555213.948553) can0 105#00000000000051AE
(1619555213.958578) can0 105#00000000000052AD
(1619555212.868862) can0 101#0000002049440B47
(1619555212.868862) can0 431#0000000000000000
(1619555212.868862) can0 1A0#00C0C64000000B2E
(1619555213.958659) can0 106#003E000000000AB7
(1619555213.958933) can0 107#0202000000000000
(1619555212.868862) can0 101#0000002049440C46
(1619555212.868862) can0 431#0000000000000000
(1619555212.868862) can0 1A0#00C0C64000000C2D
(1619555213.968578) can0 105#00000000000053AC
(1619555212.868862) can0 101#0000002049440D45
(1619555212.868862) can0 431#0000000000000000
(1619555212.868862) can0 1A0#00C0C64000000D2C
(1619555213.978502) can0 105#00000000000054AB
(1619555213.988708) can0 105#00000000000055AA
(1619555212.868862) can0 101#0000002049440E44
(1619555212.868862) can0 431#0000000000000000
(1619555212.868862) can0 1A0#00C0C64000000E2B
(1619555213.998534) can0 105#00010000000056A8
(1619555214.008459) can0 105#00010000000057A7
(1619555212.868862) can0 101#0000002049440F43
(1619555212.868862) can0 431#0000000000000000
(1619555212.868862) can0 1A0#00C0C64000000F2A
(1619555214.008712) can0 106#003E000000000BB6
(1619555214.008899) can0 107#0212000000000000
(1619555212.868862) can0 101#0000002049440052
(1619555212.868862) can0 431#0000000000000000
(1619555212.868862) can0 1A0#00C0C64000000039
(1619555214.018554) can0 105#00010000000058A6
(1619555212.868862) can0 101#0000002049440151
(1619555212.868862) can0 431#0000000000000000
(1619555212.868862) can0 1A0#00C0C64000000138
(1619555214.028470) can0 105#00000000000059A6
(1619555214.038595) can0 105#0000000000005AA5
(1619555212.868862) can0 101#0000002049440250
(1619555212.868862) can0 431#0000000000000000
(1619555212.868862) can0 1A0#00C0C64000000237
(1619555214.048502) can0 105#0000000000005BA4
(1619555214.058596) can0 105#0000000000005CA3
(1619555212.868862) can0 101#000000204944034F
(1619555212.868862) can0 431#0000000000000000
(1619555212.868862) can0 1A0#00C0C64000000336
(1619555214.058703) can0 106#003E000000000CB5
(1619555214.059106) can0 107#021E000000000000
(1619555212.868862) can0 101#000000204944044E
(1619555212.868862) can0 431#0000000000000000
(1619555212.868862) can0 1A0#00C0C64000000435
(1619555214.068611) can0 105#0000000000005DA2
(1619555212.868862) can0 101#000000204944054D
(1619555212.868862) can0 431#0000000000000000
(1619555212.868862) can0 1A0#00C0C64000000534
(1619555214.078450) can0 105#0000000000005EA1
(1619555214.088549) can0 105#0000000000005FA0
(1619555212.868862) can0 101#000000204944064C
(1619555212.868862) can0 431#0000000000000000
(1619555212.868862) can0 1A0#00C0C64000000633
(1619555214.098483) can0 105#00000000000050AF
(1619555214.108619) can0 105#00000000000051AE
(1619555212.868862) can0 101#000000204944074B
(1619555212.868862) can0 431#0000000000000000
(1619555212.868862) can0 1A0#00C0C64000000732
(1619555214.108754) can0 106#003E000000000DB4
(1619555214.109119) can0 107#0233000000000000
(1619555212.868862) can0 101#000000204944084A
(1619555212.868862) can0 431#0000000000000000
(1619555212.868862) can0 1A0#00C0C64000000831
(1619555214.118529) can0 105#00000000000052AD
(1619555214.128573) can0 105#00000000000053AC
(1619555212.868862) can0 101#0000002049440949
(1619555212.868862) can0 431#0000000000000000
(1619555212.868862) can0 1A0#00C0C64000000930
(1619555214.138541) can0 105#00000000000054AB
(1619555214.148578) can0 105#00000000000055AA
(1619555212.868862) can0 101#0000002049440A48
(1619555212.868862) can0 431#0000000000000000
(1619555212.868862) can0 1A0#00C0C64000000A2F
(1619555214.158543) can0 105#00000000000056A9
(1619555214.158668) can0 106#003E000000000EB3
(1619555212.868862) can0 101#0000002049440B47
(1619555212.868862) can0 431#0000000000000000
(1619555212.868862) can0 1A0#00C0C64000000B2E
(1619555214.158918) can0 107#0246000000000000
(1619555212.868862) can0 101#0000002049440C46
(1619555212.868862) can0 431#0000000000000000
(1619555212.868862) can0 1A0#00C0C64000000C2D
(1619555214.168540) can0 105#00000000000057A8
(1619555214.178679) can0 105#00000000000058A7
(1619555212.868862) can0 101#0000002049440D45
(1619555212.868862) can0 431#0000000000000000
(1619555212.868862) can0 1A0#00C0C64000000D2C
(1619555214.188509) can0 105#00010000000059A5
(1619555214.198502) can0 105#0001000000005AA4
(1619555212.868862) can0 101#0000002049440E44
(1619555212.868862) can0 431#0000000000000000
(1619555212.868862) can0 1A0#00C0C64000000E2B
(1619555214.208493) can0 105#0001000000005BA3
(1619555214.208781) can0 106#003E000000000FB2
(1619555212.868862) can0 101#0000002049440F43
(1619555212.868862) can0 431#0000000000000000
(1619555212.868862) can0 1A0#00C0C64000000F2A
(1619555214.208897) can0 107#0255000000000000
(1619555212.868862) can0 101#0000002049440052
(1619555212.868862) can0 431#0000000000000000
(1619555212.868862) can0 1A0#00C0C64000000039
(1619555214.218522) can0 105#0001000000005CA2
(1619555214.228647) can0 105#0000000000005DA2
(1619555212.868862) can0 101#0000002049440151
(1619555212.868862) can0 431#0000000000000000
(1619555212.868862) can0 1A0#00C0C64000000138
(1619555214.238547) can0 105#0000000000005EA1
(1619555214.248529) can0 105#0000000000005FA0
(1619555212.868862) can0 101#0000002049440250
(1619555212.868862) can0 431#0000000000000000
(1619555212.868862) can0 1A0#00C0C64000000237
(1619555214.258547) can0 105#00000000000050AF
(1619555214.258719) can0 106#003E0000000000C1
(1619555212.868862) can0 101#000000204944034F
(1619555212.868862) can0 431#0000000000000000
(1619555212.868862) can0 1A0#00C0C64000000336
(1619555214.258922) can0 107#0264000000000000
(1619555212.868862) can0 101#000000204944044E
(1619555212.868862) can0 431#0000000000000000
(1619555212.868862) can0 1A0#00C0C64000000435
(1619555214.268498) can0 105#00000000000051AE
(1619555214.278546) can0 105#00000000000052AD
(1619555212.868862) can0 101#000000204944054D
(1619555212.868862) can0 431#0000000000000000
(1619555212.868862) can0 1A0#00C0C64000000534
(1619555214.288648) can0 105#00000000000053AC
(1619555212.868862) can0 101#000000204944064C
(1619555212.868862) can0 431#0000000000000000
(1619555212.868862) can0 1A0#00C0C64000000633
(1619555214.298507) can0 105#00000000000054AB
(1619555214.308590) can0 105#00000000000055AA
(1619555212.868862) can0 101#000000204944074B
(1619555212.868862) can0 431#0000000000000000
(1619555212.868862) can0 1A0#00C0C64000000732
(1619555214.308725) can0 106#003E0000000001C0
(1619555214.309154) can0 107#026F000000000000
(1619555212.868862) can0 101#000000204944084A
(1619555212.868862) can0 431#0000000000000000
(1619555212.868862) can0 1A0#00C0C64000000831
(1619555214.318524) can0 105#00000000000056A9
(1619555214.328551) can0 105#00000000000057A8
(1619555212.868862) can0 101#0000002049440949
(1619555212.868862) can0 431#0000000000000000
(1619555212.868862) can0 1A0#00C0C64000000930
(1619555214.338541) can0 105#00000000000058A7
(1619555214.348573) can0 105#00000000000059A6
(1619555212.868862) can0 101#0000002049440A48
(1619555212.868862) can0 431#0000000000000000
(1619555212.868862) can0 1A0#00C0C64000000A2F
(1619555214.358515) can0 105#0000000000005AA5
(1619555212.868862) can0 101#0000002049440B47
(1619555212.868862) can0 431#0000000000000000
(1619555212.868862) can0 1A0#00C0C64000000B2E
(1619555214.358810) can0 106#003E0000000002BF
(1619555214.358984) can0 107#0283000000000000
(1619555212.868862) can0 101#0000002049440C46
(1619555212.868862) can0 431#0000000000000000
(1619555212.868862) can0 1A0#00C0C64000000C2D
(1619555214.368485) can0 105#0000000000005BA4
(1619555214.378562) can0 105#0000000000005CA3
(1619555214.388440) can0 105#0000000000005DA2
(1619555212.868862) can0 101#0000002049440D45
(1619555212.868862) can0 431#0000000000000000
(1619555212.868862) can0 1A0#00C0C64000000D2C
(1619555214.398468) can0 105#0000000000005EA1
(1619555214.408543) can0 105#0000000000005FA0
(1619555212.868862) can0 101#0000002049440E44
(1619555212.868862) can0 431#0000000000000000
(1619555212.868862) can0 1A0#00C0C64000000E2B
(1619555214.408728) can0 106#003E0000000003BE
(1619555214.408948) can0 107#0294000000000000
(1619555212.868862) can0 101#0000002049440F43
(1619555212.868862) can0 431#0000000000000000
(1619555212.868862) can0 1A0#00C0C64000000F2A
(1619555214.418517) can0 105#00000000000050AF
(1619555214.428598) can0 105#00000000000051AE
(1619555212.868862) can0 101#0000002049440052
(1619555212.868862) can0 431#0000000000000000
(1619555212.868862) can0 1A0#00C0C64000000039
(1619555214.438517) can0 105#00000000000052AD
(1619555212.868862) can0 101#0000002049440151
(1619555212.868862) can0 431#0000000000000000
(1619555212.868862) can0 1A0#00C0C64000000138
(1619555214.448491) can0 105#00000000000053AC
(1619555214.458487) can0 105#00000000000054AB
(1619555212.868862) can0 101#0000002049440250
(1619555212.868862) can0 431#0000000000000000
(1619555212.868862) can0 1A0#00C0C64000000237
(1619555214.458731) can0 106#003E0000000004BD
(1619555214.458928) can0 107#02A2000000000000
(1619555212.868862) can0 101#000000204944034F
(1619555212.868862) can0 431#0000000000000000
(1619555212.868862) can0 1A0#00C0C64000000336
(1619555214.468524) can0 105#00000000000055AA
(1619555214.478502) can0 105#00000000000056A9
(1619555212.868862) can0 101#000000204944044E
(1619555212.868862) can0 431#0000000000000000
(1619555212.868862) can0 1A0#00C0C64000000435
(1619555214.488557) can0 105#00000000000057A8
(1619555212.868862) can0 101#000000204944054D
(1619555212.868862) can0 431#0000000000000000
(1619555212.868862) can0 1A0#00C0C64000000534
(1619555214.498537) can0 105#00000000000058A7
(1619555214.508442) can0 105#00000000000059A6
(1619555212.868862) can0 101#000000204944064C
(1619555212.868862) can0 431#0000000000000000
(1619555212.868862) can0 1A0#00C0C64000000633
(1619555214.508663) can0 106#003E0000000005BC
(1619555214.508909) can0 107#02AC000000000000
(1619555212.868862) can0 101#000000204944074B
(1619555212.868862) can0 431#0000000000000000
(1619555212.868862) can0 1A0#00C0C64000000732
(1619555214.518495) can0 105#0000000000005AA5
(1619555214.528491) can0 105#0000000000005BA4
(1619555212.868862) can0 101#000000204944084A
(1619555212.868862) can0 431#0000000000000000
(1619555212.868862) can0 1A0#00C0C64000000831
(1619555214.538503) can0 105#0000000000005CA3
(1619555214.548497) can0 105#0000000000005DA2
(1619555212.868862) can0 101#0000002049440949
(1619555212.868862) can0 431#0000000000000000
(1619555212.868862) can0 1A0#00C0C64000000930
(1619555214.558687) can0 105#0000000000005EA1
(1619555214.558817) can0 106#003E0000000006BB
(1619555212.868862) can0 101#0000002049440A48
(1619555212.868862) can0 431#0000000000000000
(1619555212.868862) can0 1A0#00C0C64000000A2F
(1619555214.558976) can0 107#02BF000000000000
(1619555214.568532) can0 105#0001000000005F9F
(1619555212.868862) can0 101#0000002049440B47
(1619555212.868862) can0 431#0000000000000000
(1619555212.868862) can0 1A0#00C0C64000000B2E
(1619555214.578597) can0 105#00010000000050AE
(1619555214.588503) can0 105#00010000000051AD
(1619555212.868862) can0 101#0000002049440C46
(1619555212.868862) can0 431#0000000000000000
(1619555212.868862) can0 1A0#00C0C64000000C2D
(1619555214.598476) can0 105#00010000000052AC
(1619555214.608445) can0 105#00000000000053AC
(1619555212.868862) can0 101#0000002049440D45
(1619555212.868862) can0 431#0000000000000000
(1619555212.868862) can0 1A0#00C0C64000000D2C
(1619555214.608672) can0 106#003E0000000007BA
(1619555214.608908) can0 107#02D0000000000000
(1619555212.868862) can0 101#0000002049440E44
(1619555212.868862) can0 431#0000000000000000
(1619555212.868862) can0 1A0#00C0C64000000E2B
(1619555214.618583) can0 105#00000000000054AB
(1619555214.628509) can0 105#00000000000055AA
(1619555212.868862) can0 101#0000002049440F43
(1619555212.868862) can0 431#0000000000000000
(1619555212.868862) can0 1A0#00C0C64000000F2A
(1619555214.638591) can0 105#00000000000056A9
(1619555214.648495) can0 105#00000000000057A8
(1619555212.868862) can0 101#0000002049440052
(1619555212.868862) can0 431#0000000000000000
(1619555212.868862) can0 1A0#00C0C64000000039
(1619555214.658500) can0 105#00000000000058A7
(1619555214.658737) can0 106#003E0000000008B9
(1619555212.868862) can0 101#0000002049440151
(1619555212.868862) can0 431#0000000000000000
(1619555212.868862) can0 1A0#00C0C64000000138
(1619555214.658921) can0 107#02DE000000000000
(1619555214.668479) can0 105#00000000000059A6
(1619555212.868862) can0 101#0000002049440250
(1619555212.868862) can0 431#0000000000000000
(1619555212.868862) can0 1A0#00C0C64000000237
(1619555214.678467) can0 105#0000000000005AA5
(1619555214.688535) can0 105#0000000000005BA4
(1619555212.868862) can0 101#000000204944034F
(1619555212.868862) can0 431#0000000000000000
(1619555212.868862) can0 1A0#00C0C64000000336
(1619555214.698750) can0 105#0000000000005CA3
(1619555214.708507) can0 105#0000000000005DA2
(1619555212.868862) can0 101#000000204944044E
(1619555212.868862) can0 431#0000000000000000
(1619555212.868862) can0 1A0#00C0C64000000435
(1619555214.708766) can0 106#003E0000000009B8
(1619555214.708920) can0 107#02E9000000000000
(1619555212.868862) can0 101#000000204944054D
(1619555212.868862) can0 431#0000000000000000
(1619555212.868862) can0 1A0#00C0C64000000534
(1619555214.718505) can0 105#0000000000005EA1
(1619555214.728548) can0 105#0000000000005FA0
(1619555212.868862) can0 101#000000204944064C
(1619555212.868862) can0 431#0000000000000000
(1619555212.868862) can0 1A0#00C0C64000000633
(1619555214.738490) can0 105#00000000000050AF
(1619555214.748748) can0 105#00000000000051AE
(1619555212.868862) can0 101#000000204944074B
(1619555212.868862) can0 431#0000000000000000
(1619555212.868862) can0 1A0#00C0C64000000732
(1619555214.758516) can0 105#00000000000052AD
(1619555214.758816) can0 106#003E000000000AB7
(1619555212.868862) can0 101#000000204944084A
(1619555212.868862) can0 431#0000000000000000
(1619555212.868862) can0 1A0#00C0C64000000831
(1619555214.758926) can0 107#02F6000000000000
(1619555214.768582) can0 105#00000000000053AC
(1619555212.868862) can0 101#0000002049440949
(1619555212.868862) can0 431#0000000000000000
(1619555212.868862) can0 1A0#00C0C64000000930
(1619555214.778516) can0 105#00000000000054AB
(1619555214.788681) can0 105#00000000000055AA
(1619555212.868862) can0 101#0000002049440A48
(1619555212.868862) can0 431#0000000000000000
(1619555212.868862) can0 1A0#00C0C64000000A2F
(1619555214.798526) can0 105#00000000000056A9
(1619555214.808519) can0 105#00010000000057A7
(1619555212.868862) can0 101#0000002049440B47
(1619555212.868862) can0 431#0000000000000000
(1619555212.868862) can0 1A0#00C0C64000000B2E
(1619555214.808714) can0 106#003E000000000BB6
(1619555214.808932) can0 107#0309000000000000
(1619555212.868862) can0 101#0000002049440C46
(1619555212.868862) can0 431#0000000000000000
(1619555212.868862) can0 1A0#00C0C64000000C2D
(1619555214.818543) can0 105#00010000000058A6
(1619555214.828542) can0 105#00010000000059A5
(1619555212.868862) can0 101#0000002049440D45
(1619555212.868862) can0 431#0000000000000000
(1619555212.868862) can0 1A0#00C0C64000000D2C
(1619555214.838734) can0 105#0001000000005AA4
(1619555214.848560) can0 105#0000000000005BA4
(1619555212.868862) can0 101#0000002049440E44
(1619555212.868862) can0 431#0000000000000000
(1619555212.868862) can0 1A0#00C0C64000000E2B
(1619555214.858546) can0 105#0001000000005CA2
(1619555214.858743) can0 106#003E000000000CB5
(1619555212.868862) can0 101#0000002049440F43
(1619555212.868862) can0 431#0000000000000000
(1619555212.868862) can0 1A0#00C0C64000000F2A
(1619555214.858940) can0 107#0312000000000000
(1619555214.868629) can0 105#0001000000005DA1
(1619555212.868862) can0 101#0000002049440052
(1619555212.868862) can0 431#0000000000000000
(1619555212.868862) can0 1A0#00C0C64000000039
(1619555214.878552) can0 105#0001000000005EA0
(1619555214.888662) can0 105#0001000000005F9F
(1619555212.868862) can0 101#0000002049440151
(1619555212.868862) can0 431#0000000000000000
(1619555212.868862) can0 1A0#00C0C64000000138
(1619555214.898636) can0 105#00010000000050AE
(1619555214.908507) can0 105#00010000000051AD
(1619555212.868862) can0 101#0000002049440250
(1619555212.868862) can0 431#0000000000000000
(1619555212.868862) can0 1A0#00C0C64000000237
(1619555214.908697) can0 106#003E000000000DB4
(1619555214.909002) can0 107#0326000000000000
(1619555212.868862) can0 101#000000204944034F
(1619555212.868862) can0 431#0000000000000000
(1619555212.868862) can0 1A0#00C0C64000000336
(1619555214.918537) can0 105#00010000000052AC
(1619555214.928521) can0 105#00000000000053AC
(1619555212.868862) can0 101#000000204944044E
(1619555212.868862) can0 431#0000000000000000
(1619555212.868862) can0 1A0#00C0C64000000435
(1619555214.938577) can0 105#00000000000054AB
(1619555214.948648) can0 105#00000000000055AA
(1619555212.868862) can0 101#000000204944054D
(1619555212.868862) can0 431#0000000000000000
(1619555212.868862) can0 1A0#00C0C64000000534
(1619555214.958568) can0 105#00000000000056A9
(1619555214.959024) can0 106#003E000000000EB3
(1619555212.868862) can0 101#000000204944064C
(1619555212.868862) can0 431#0000000000000000
(1619555212.868862) can0 1A0#00C0C64000000633
(1619555214.959125) can0 107#0336000000000000
(1619555214.968479) can0 105#00000000000057A8
(1619555212.868862) can0 101#000000204944074B
(1619555212.868862) can0 431#0000000000000000
(1619555212.868862) can0 1A0#00C0C64000000732
(1619555214.978529) can0 105#00000000000058A7
(1619555214.988515) can0 105#00000000000059A6
(1619555212.868862) can0 101#000000204944084A
(1619555212.868862) can0 431#0000000000000000
(1619555212.868862) can0 1A0#00C0C64000000831
(1619555214.998512) can0 105#0000000000005AA5
(1619555215.008541) can0 105#0000000000005BA4
(1619555212.868862) can0 101#0000002049440949
(1619555212.868862) can0 431#0000000000000000
(1619555212.868862) can0 1A0#00C0C64000000930
(1619555215.008801) can0 106#003E000000000FB2
(1619555215.008947) can0 107#0346000000000000
(1619555212.868862) can0 101#0000002049440A48
(1619555212.868862) can0 431#0000000000000000
(1619555212.868862) can0 1A0#00C0C64000000A2F
(1619555215.018614) can0 105#0000000000005CA3
(1619555215.028803) can0 105#0000000000005DA2
(1619555212.868862) can0 101#0000002049440B47
(1619555212.868862) can0 431#0000000000000000
(1619555212.868862) can0 1A0#00C0C64000000B2E
(1619555215.038562) can0 105#0000000000005EA1
(1619555215.048519) can0 105#0000000000005FA0
(1619555212.868862) can0 101#0000002049440C46
(1619555212.868862) can0 431#0000000000000000
(1619555212.868862) can0 1A0#00C0C64000000C2D
(1619555215.058583) can0 105#00000000000050AF
(1619555215.058895) can0 106#003E0000000000C1
(1619555212.868862) can0 101#0000002049440D45
(1619555212.868862) can0 431#0000000000000000
(1619555212.868862) can0 1A0#00C0C64000000D2C
(1619555215.058981) can0 107#034E000000000000
(1619555215.068497) can0 105#00000000000051AE
(1619555212.868862) can0 101#0000002049440E44
(1619555212.868862) can0 431#0000000000000000
(1619555212.868862) can0 1A0#00C0C64000000E2B
(1619555215.078534) can0 105#00000000000052AD
(1619555215.088782) can0 105#00000000000053AC
(1619555212.868862) can0 101#0000002049440F43
(1619555212.868862) can0 431#0000000000000000
(1619555212.868862) can0 1A0#00C0C64000000F2A
(1619555215.098543) can0 105#00000000000054AB
(1619555215.108538) can0 105#00000000000055AA
(1619555212.868862) can0 101#0000002049440052
(1619555212.868862) can0 431#0000000000000000
(1619555212.868862) can0 1A0#00C0C64000000039
(1619555215.108739) can0 106#003E0000000001C0
(1619555215.108953) can0 107#0361000000000000
(1619555212.868862) can0 101#0000002049440151
(1619555212.868862) can0 431#0000000000000000
(1619555212.868862) can0 1A0#00C0C64000000138
(1619555215.118632) can0 105#00000000000056A9
(1619555215.128541) can0 105#00000000000057A8
(1619555212.868862) can0 101#0000002049440250
(1619555212.868862) can0 431#0000000000000000
(1619555212.868862) can0 1A0#00C0C64000000237
(1619555215.138560) can0 105#00000000000058A7
(1619555212.868862) can0 101#000000204944034F
(1619555212.868862) can0 431#0000000000000000
(1619555212.868862) can0 1A0#00C0C64000000336
(1619555215.148654) can0 105#00000000000059A6
(1619555215.158563) can0 105#0000000000005AA5
(1619555212.868862) can0 101#000000204944044E
(1619555212.868862) can0 431#0000000000000000
(1619555212.868862) can0 1A0#00C0C64000000435
(1619555215.158821) can0 106#003E0000000002BF
(1619555215.158996) can0 107#0369000000000000
(1619555212.868862) can0 101#000000204944054D
(1619555212.868862) can0 431#0000000000000000
(1619555212.868862) can0 1A0#00C0C64000000534
(1619555215.168547) can0 105#0000000000005BA4
(1619555215.178602) can0 105#0000000000005CA3
(1619555212.868862) can0 101#000000204944064C
(1619555212.868862) can0 431#0000000000000000
(1619555212.868862) can0 1A0#00C0C64000000633
(1619555215.188576) can0 105#0000000000005DA2
(1619555215.198744) can0 105#0000000000005EA1
(1619555212.868862) can0 101#000000204944074B
(1619555212.868862) can0 431#0000000000000000
(1619555212.868862) can0 1A0#00C0C64000000732
(1619555215.208569) can0 105#0000000000005FA0
(1619555215.208874) can0 106#003E0000000003BE
(1619555212.868862) can0 101#000000204944084A
(1619555212.868862) can0 431#0000000000000000
(1619555212.868862) can0 1A0#00C0C64000000831
(1619555215.208988) can0 107#0379000000000000
(1619555215.218575) can0 105#00000000000050AF
(1619555212.868862) can0 101#0000002049440949
(1619555212.868862) can0 431#0000000000000000
(1619555212.868862) can0 1A0#00C0C64000000930
(1619555215.228673) can0 105#00000000000051AE
(1619555215.238672) can0 105#00000000000052AD
(1619555212.868862) can0 101#0000002049440A48
(1619555212.868862) can0 431#0000000000000000
(1619555212.868862) can0 1A0#00C0C64000000A2F
(1619555215.248589) can0 105#00000000000053AC
(1619555215.258562) can0 105#00000000000054AB
(1619555212.868862) can0 101#0000002049440B47
(1619555212.868862) can0 431#0000000000000000
(1619555212.868862) can0 1A0#00C0C64000000B2E
(1619555215.258753) can0 106#003E0000000004BD
(1619555212.868862) can0 101#0000002049440C46
(1619555212.868862) can0 431#0000000000000000
(1619555212.868862) can0 1A0#00C0C64000000C2D
(1619555215.259015) can0 107#038B000000000000
(1619555215.268585) can0 105#00000000000055AA
(1619555212.868862) can0 101#0000002049440D45
(1619555212.868862) can0 431#0000000000000000
(1619555212.868862) can0 1A0#00C0C64000000D2C
(1619555215.278547) can0 105#00000000000056A9
(1619555215.288517) can0 105#00010000000057A7
(1619555212.868862) can0 101#0000002049440E44
(1619555212.868862) can0 431#0000000000000000
(1619555212.868862) can0 1A0#00C0C64000000E2B
(1619555215.298577) can0 105#00010000000058A6
(1619555215.308713) can0 105#00010000000059A5
(1619555212.868862) can0 101#0000002049440F43
(1619555212.868862) can0 431#0000000000000000
(1619555212.868862) can0 1A0#00C0C64000000F2A
(1619555215.308847) can0 106#003E0000000005BC
(1619555215.309091) can0 107#0395000000000000
(1619555212.868862) can0 101#0000002049440052
(1619555212.868862) can0 431#0000000000000000
(1619555212.868862) can0 1A0#00C0C64000000039
(1619555215.318625) can0 105#0000000000005AA5
(1619555215.328633) can0 105#0000000000005BA4
(1619555212.868862) can0 101#0000002049440151
(1619555212.868862) can0 431#0000000000000000
(1619555212.868862) can0 1A0#00C0C64000000138
(1619555215.338550) can0 105#0000000000005CA3
(1619555215.348751) can0 105#0000000000005DA2
(1619555212.868862) can0 101#0000002049440250
(1619555212.868862) can0 431#0000000000000000
(1619555212.868862) can0 1A0#00C0C64000000237
(1619555215.358570) can0 105#0000000000005EA1
(1619555215.358743) can0 106#003E0000000006BB
(1619555212.868862) can0 101#000000204944034F
(1619555212.868862) can0 431#0000000000000000
(1619555212.868862) can0 1A0#00C0C64000000336
(1619555215.358992) can0 107#03A0000000000000
(1619555215.368590) can0 105#0000000000005FA0
(1619555212.868862) can0 101#000000204944044E
(1619555212.868862) can0 431#0000000000000000
(1619555212.868862) can0 1A0#00C0C64000000435
(1619555215.378557) can0 105#00000000000050AF
(1619555215.388656) can0 105#00000000000051AE
(1619555212.868862) can0 101#000000204944054D
(1619555212.868862) can0 431#0000000000000000
(1619555212.868862) can0 1A0#00C0C64000000534
(1619555215.398601) can0 105#00000000000052AD
(1619555215.408634) can0 105#00000000000053AC
(1619555212.868862) can0 101#000000204944064C
(1619555212.868862) can0 431#0000000000000000
(1619555212.868862) can0 1A0#00C0C64000000633
(1619555215.408751) can0 106#003E0000000007BA
(1619555215.408994) can0 107#03B2000000000000
(1619555212.868862) can0 101#000000204944074B
(1619555212.868862) can0 431#0000000000000000
(1619555212.868862) can0 1A0#00C0C64000000732
(1619555215.418560) can0 105#00000000000054AB
(1619555215.428635) can0 105#00000000000055AA
(1619555212.868862) can0 101#000000204944084A
(1619555212.868862) can0 431#0000000000000000
(1619555212.868862) can0 1A0#00C0C64000000831
(1619555215.438716) can0 105#00000000000056A9
(1619555215.448550) can0 105#00000000000057A8
(1619555212.868862) can0 101#0000002049440949
(1619555212.868862) can0 431#0000000000000000
(1619555212.868862) can0 1A0#00C0C64000000930
(1619555215.458558) can0 105#00000000000058A7
(1619555215.458872) can0 106#003E0000000008B9
(1619555212.868862) can0 101#0000002049440A48
(1619555212.868862) can0 431#0000000000000000
(1619555212.868862) can0 1A0#00C0C64000000A2F
(1619555215.459005) can0 107#03BC000000000000
(1619555215.468647) can0 105#00000000000059A6
(1619555212.868862) can0 101#0000002049440B47
(1619555212.868862) can0 431#0000000000000000
(1619555212.868862) can0 1A0#00C0C64000000B2E
(1619555215.478763) can0 105#0000000000005AA5
(1619555215.488533) can0 105#0000000000005BA4
(1619555212.868862) can0 101#0000002049440C46
(1619555212.868862) can0 431#0000000000000000
(1619555212.868862) can0 1A0#00C0C64000000C2D
(1619555215.498595) can0 105#0000000000005CA3
(1619555215.508584) can0 105#0000000000005DA2
(1619555212.868862) can0 101#0000002049440D45
(1619555212.868862) can0 431#0000000000000000
(1619555212.868862) can0 1A0#00C0C64000000D2C
(1619555215.508862) can0 106#003E0000000009B8
(1619555215.509011) can0 107#03C9000000000000
(1619555212.868862) can0 101#0000002049440E44
(1619555212.868862) can0 431#0000000000000000
(1619555212.868862) can0 1A0#00C0C64000000E2B
(1619555215.518591) can0 105#0000000000005EA1
(1619555212.868862) can0 101#0000002049440F43
(1619555212.868862) can0 431#0000000000000000
(1619555212.868862) can0 1A0#00C0C64000000F2A
(1619555215.528579) can0 105#0000000000005FA0
(1619555215.538596) can0 105#00000000000050AF
(1619555212.868862) can0 101#0000002049440052
(1619555212.868862) can0 431#0000000000000000
(1619555212.868862) can0 1A0#00C0C64000000039
(1619555215.548680) can0 105#00000000000051AE
(1619555215.558559) can0 105#00000000000052AD
(1619555212.868862) can0 101#0000002049440151
(1619555212.868862) can0 431#0000000000000000
(1619555212.868862) can0 1A0#00C0C64000000138
(1619555215.558778) can0 106#003E000000000AB7
(1619555215.559005) can0 107#03D7000000000000
(1619555212.868862) can0 101#0000002049440250
(1619555212.868862) can0 431#0000000000000000
(1619555212.868862) can0 1A0#00C0C64000000237
(1619555215.568562) can0 105#00000000000053AC
(1619555215.578537) can0 105#00010000000054AA
(1619555212.868862) can0 101#000000204944034F
(1619555212.868862) can0 431#0000000000000000
(1619555212.868862) can0 1A0#00C0C64000000336
(1619555215.588542) can0 105#00010000000055A9
(1619555212.868862) can0 101#000000204944044E
(1619555212.868862) can0 431#0000000000000000
(1619555212.868862) can0 1A0#00C0C64000000435
(1619555215.598573) can0 105#00010000000056A8
(1619555215.608652) can0 105#00000000000057A8
(1619555215.608783) can0 106#003E000000000BB6
(1619555212.868862) can0 101#000000204944054D
(1619555212.868862) can0 431#0000000000000000
(1619555212.868862) can0 1A0#00C0C64000000534
(1619555215.609066) can0 107#03DD000000000000
(1619555215.618622) can0 105#00000000000058A7
(1619555212.868862) can0 101#000000204944064C
(1619555212.868862) can0 431#0000000000000000
(1619555212.868862) can0 1A0#00C0C64000000633
(1619555215.628555) can0 105#00000000000059A6
(1619555215.638570) can0 105#0000000000005AA5
(1619555212.868862) can0 101#000000204944074B
(1619555212.868862) can0 431#0000000000000000
(1619555212.868862) can0 1A0#00C0C64000000732
(1619555215.648639) can0 105#0000000000005BA4
(1619555215.658762) can0 105#0000000000005CA3
(1619555212.868862) can0 101#000000204944084A
(1619555212.868862) can0 431#0000000000000000
(1619555212.868862) can0 1A0#00C0C64000000831
(1619555215.658904) can0 106#003E000000000CB5
(1619555215.659355) can0 107#03F0000000000000
(1619555212.868862) can0 101#0000002049440949
(1619555212.868862) can0 431#0000000000000000
(1619555212.868862) can0 1A0#00C0C64000000930
(1619555215.668565) can0 105#0000000000005DA2
(1619555212.868862) can0 101#0000002049440A48
(1619555212.868862) can0 431#0000000000000000
(1619555212.868862) can0 1A0#00C0C64000000A2F
(1619555215.678617) can0 105#0001000000005EA0
(1619555215.688562) can0 105#0001000000005F9F
(1619555212.868862) can0 101#0000002049440B47
(1619555212.868862) can0 431#0000000000000000
(1619555212.868862) can0 1A0#00C0C64000000B2E
(1619555215.698613) can0 105#00010000000050AE
(1619555215.708553) can0 105#00010000000051AD
(1619555212.868862) can0 101#0000002049440C46
(1619555212.868862) can0 431#0000000000000000
(1619555212.868862) can0 1A0#00C0C64000000C2D
(1619555215.708752) can0 106#003E000000000DB4
(1619555215.708995) can0 107#0400000000000000
(1619555212.868862) can0 101#0000002049440D45
(1619555212.868862) can0 431#0000000000000000
(1619555212.868862) can0 1A0#00C0C64000000D2C
(1619555215.718694) can0 105#00010000000052AC
(1619555212.868862) can0 101#0000002049440E44
(1619555212.868862) can0 431#0000000000000000
(1619555212.868862) can0 1A0#00C0C64000000E2B
(1619555215.728588) can0 105#00010000000053AB
(1619555215.738563) can0 105#00000000000054AB
(1619555212.868862) can0 101#0000002049440F43
(1619555212.868862) can0 431#0000000000000000
(1619555212.868862) can0 1A0#00C0C64000000F2A
(1619555215.748586) can0 105#00000000000055AA
(1619555215.758653) can0 105#00000000000056A9
(1619555212.868862) can0 101#0000002049440052
(1619555212.868862) can0 431#0000000000000000
(1619555212.868862) can0 1A0#00C0C64000000039
(1619555215.758746) can0 106#003E000000000EB3
(1619555215.759044) can0 107#0407000000000000
(1619555212.868862) can0 101#0000002049440151
(1619555212.868862) can0 431#0000000000000000
(1619555212.868862) can0 1A0#00C0C64000000138
(1619555215.768672) can0 105#00000000000057A8
(1619555212.868862) can0 101#0000002049440250
(1619555212.868862) can0 431#0000000000000000
(1619555212.868862) can0 1A0#00C0C64000000237
(1619555215.778642) can0 105#00000000000058A7
(1619555215.788624) can0 105#00000000000059A6
(1619555212.868862) can0 101#000000204944034F
(1619555212.868862) can0 431#0000000000000000
(1619555212.868862) can0 1A0#00C0C64000000336
(1619555215.798551) can0 105#0000000000005AA5
(1619555215.808793) can0 105#0000000000005BA4
(1619555212.868862) can0 101#000000204944044E
(1619555212.868862) can0 431#0000000000000000
(1619555212.868862) can0 1A0#00C0C64000000435
(1619555215.808922) can0 106#003E000000000FB2
(1619555215.809348) can0 107#0416000000000000
(1619555212.868862) can0 101#000000204944054D
(1619555212.868862) can0 431#0000000000000000
(1619555212.868862) can0 1A0#00C0C64000000534
(1619555215.818588) can0 105#0000000000005CA3
(1619555215.828631) can0 105#0000000000005DA2
(1619555212.868862) can0 101#000000204944064C
(1619555212.868862) can0 431#0000000000000000
(1619555212.868862) can0 1A0#00C0C64000000633
(1619555215.838638) can0 105#0000000000005EA1
(1619555215.848582) can0 105#0000000000005FA0
(1619555212.868862) can0 101#000000204944074B
(1619555212.868862) can0 431#0000000000000000
(1619555212.868862) can0 1A0#00C0C64000000732
(1619555215.858595) can0 105#00000000000050AF
(1619555215.858836) can0 106#003E0000000000C1
(1619555212.868862) can0 101#000000204944084A
(1619555212.868862) can0 431#0000000000000000
(1619555212.868862) can0 1A0#00C0C64000000831
(1619555215.859027) can0 107#0422000000000000
(1619555215.868694) can0 105#00000000000051AE
(1619555212.868862) can0 101#0000002049440949
(1619555212.868862) can0 431#0000000000000000
(1619555212.868862) can0 1A0#00C0C64000000930
(1619555215.878666) can0 105#00000000000052AD
(1619555215.888577) can0 105#00000000000053AC
(1619555212.868862) can0 101#0000002049440A48
(1619555212.868862) can0 431#0000000000000000
(1619555212.868862) can0 1A0#00C0C64000000A2F
(1619555215.898612) can0 105#00000000000054AB
(1619555215.908636) can0 105#00000000000055AA
(1619555212.868862) can0 101#0000002049440B47
(1619555212.868862) can0 431#0000000000000000
(1619555212.868862) can0 1A0#00C0C64000000B2E
(1619555215.908775) can0 106#003E0000000001C0
(1619555215.909037) can0 107#042A000000000000
(1619555212.868862) can0 101#0000002049440C46
(1619555212.868862) can0 431#0000000000000000
(1619555212.868862) can0 1A0#00C0C64000000C2D
(1619555215.918599) can0 105#00000000000056A9
(1619555215.928633) can0 105#00000000000057A8
(1619555212.868862) can0 101#0000002049440D45
(1619555212.868862) can0 431#0000000000000000
(1619555212.868862) can0 1A0#00C0C64000000D2C
(1619555215.938718) can0 105#00000000000058A7
(1619555215.948724) can0 105#00000000000059A6
(1619555212.868862) can0 101#0000002049440E44
(1619555212.868862) can0 431#0000000000000000
(1619555212.868862) can0 1A0#00C0C64000000E2B
(1619555215.958603) can0 105#0000000000005AA5
(1619555215.958843) can0 106#003E0000000002BF
(1619555212.868862) can0 101#0000002049440F43
(1619555212.868862) can0 431#0000000000000000
(1619555212.868862) can0 1A0#00C0C64000000F2A
(1619555215.959038) can0 107#043A000000000000
(1619555215.968584) can0 105#0000000000005BA4
(1619555212.868862) can0 101#0000002049440052
(1619555212.868862) can0 431#0000000000000000
(1619555212.868862) can0 1A0#00C0C64000000039
(1619555215.978536) can0 105#0000000000005CA3
(1619555215.988720) can0 105#0000000000005DA2
(1619555212.868862) can0 101#0000002049440151
(1619555212.868862) can0 431#0000000000000000
(1619555212.868862) can0 1A0#00C0C64000000138
(1619555215.998639) can0 105#0000000000005EA1
(1619555216.008676) can0 105#0000000000005FA0
(1619555212.868862) can0 101#0000002049440250
(1619555212.868862) can0 431#0000000000000000
(1619555212.868862) can0 1A0#00C0C64000000237
(1619555216.008780) can0 106#003E0000000003BE
(1619555216.009164) can0 107#0443000000000000
(1619555212.868862) can0 101#000000204944034F
(1619555212.868862) can0 431#0000000000000000
(1619555212.868862) can0 1A0#00C0C64000000336
(1619555216.018613) can0 105#00000000000050AF
(1619555216.028597) can0 105#00000000000051AE
(1619555212.868862) can0 101#000000204944044E
(1619555212.868862) can0 431#0000000000000000
(1619555212.868862) can0 1A0#00C0C64000000435
(1619555216.038606) can0 105#00000000000052AD
(1619555216.048573) can0 105#00000000000053AC
(1619555212.868862) can0 101#000000204944054D
(1619555212.868862) can0 431#0000000000000000
(1619555212.868862) can0 1A0#00C0C64000000534
(1619555216.058709) can0 105#00000000000054AB
(1619555216.058785) can0 106#003E0000000004BD
(1619555212.868862) can0 101#000000204944064C
(1619555212.868862) can0 431#0000000000000000
(1619555212.868862) can0 1A0#00C0C64000000633
(1619555216.059050) can0 107#0453000000000000
(1619555216.068618) can0 105#00000000000055AA
(1619555212.868862) can0 101#000000204944074B
(1619555212.868862) can0 431#0000000000000000
(1619555212.868862) can0 1A0#00C0C64000000732
(1619555216.078609) can0 105#00000000000056A9
(1619555216.088612) can0 105#00000000000057A8
(1619555212.868862) can0 101#000000204944084A
(1619555212.868862) can0 431#0000000000000000
(1619555212.868862) can0 1A0#00C0C64000000831
(1619555216.098604) can0 105#00000000000058A7
(1619555216.108595) can0 105#00000000000059A6
(1619555212.868862) can0 101#0000002049440949
(1619555212.868862) can0 431#0000000000000000
(1619555212.868862) can0 1A0#00C0C64000000930
(1619555216.108814) can0 106#003E0000000005BC
(1619555212.868862) can0 101#0000002049440A48
(1619555212.868862) can0 431#0000000000000000
(1619555212.868862) can0 1A0#00C0C64000000A2F
(1619555216.109019) can0 107#045A000000000000
(1619555216.118708) can0 105#0000000000005AA5
(1619555212.868862) can0 101#0000002049440B47
(1619555212.868862) can0 431#0000000000000000
(1619555212.868862) can0 1A0#00C0C64000000B2E
(1619555216.128596) can0 105#0000000000005BA4
(1619555216.138626) can0 105#0000000000005CA3
(1619555212.868862) can0 101#0000002049440C46
(1619555212.868862) can0 431#0000000000000000
(1619555212.868862) can0 1A0#00C0C64000000C2D
(1619555216.148600) can0 105#0000000000005DA2
(1619555216.158641) can0 105#0000000000005EA1
(1619555212.868862) can0 101#0000002049440D45
(1619555212.868862) can0 431#0000000000000000
(1619555212.868862) can0 1A0#00C0C64000000D2C
(1619555216.158967) can0 106#003E0000000006BB
(1619555216.159036) can0 107#046B000000000000
(1619555212.868862) can0 101#0000002049440E44
(1619555212.868862) can0 431#0000000000000000
(1619555212.868862) can0 1A0#00C0C64000000E2B
(1619555216.168729) can0 105#0000000000005FA0
(1619555216.178592) can0 105#00000000000050AF
(1619555212.868862) can0 101#0000002049440F43
(1619555212.868862) can0 431#0000000000000000
(1619555212.868862) can0 1A0#00C0C64000000F2A
(1619555216.188720) can0 105#00000000000051AE
(1619555212.868862) can0 101#0000002049440052
(1619555212.868862) can0 431#0000000000000000
(1619555212.868862) can0 1A0#00C0C64000000039
(1619555216.198636) can0 105#00000000000052AD
(1619555216.208612) can0 105#00000000000053AC
(1619555212.868862) can0 101#0000002049440151
(1619555212.868862) can0 431#0000000000000000
(1619555212.868862) can0 1A0#00C0C64000000138
(1619555216.208840) can0 106#003E0000000007BA
(1619555216.209080) can0 107#0477000000000000
(1619555212.868862) can0 101#0000002049440250
(1619555212.868862) can0 431#0000000000000000
(1619555212.868862) can0 1A0#00C0C64000000237
(1619555216.218638) can0 105#00000000000054AB
(1619555216.228675) can0 105#00000000000055AA
(1619555212.868862) can0 101#000000204944034F
(1619555212.868862) can0 431#0000000000000000
(1619555212.868862) can0 1A0#00C0C64000000336
(1619555216.238638) can0 105#00000000000056A9
(1619555216.248612) can0 105#00000000000057A8
(1619555212.868862) can0 101#000000204944044E
(1619555212.868862) can0 431#0000000000000000
(1619555212.868862) can0 1A0#00C0C64000000435
(1619555216.258697) can0 105#00000000000058A7
(1619555212.868862) can0 101#000000204944054D
(1619555212.868862) can0 431#0000000000000000
(1619555212.868862) can0 1A0#00C0C64000000534
(1619555216.258951) can0 106#003E0000000008B9
(1619555216.259085) can0 107#0480000000000000
(1619555212.868862) can0 101#000000204944064C
(1619555212.868862) can0 431#0000000000000000
(1619555212.868862) can0 1A0#00C0C64000000633
(1619555216.268549) can0 105#00000000000059A6
(1619555216.278689) can0 105#0000000000005AA5
(1619555212.868862) can0 101#000000204944074B
(1619555212.868862) can0 431#0000000000000000
(1619555212.868862) can0 1A0#00C0C64000000732
(1619555216.288615) can0 105#0000000000005BA4
(1619555216.298678) can0 105#0000000000005CA3
(1619555216.308650) can0 105#0000000000005DA2
(1619555212.868862) can0 101#000000204944084A
(1619555212.868862) can0 431#0000000000000000
(1619555212.868862) can0 1A0#00C0C64000000831
(1619555216.308975) can0 106#003E0000000009B8
(1619555212.868862) can0 101#0000002049440949
(1619555212.868862) can0 431#0000000000000000
(1619555212.868862) can0 1A0#00C0C64000000930
(1619555216.309034) can0 107#0484000000000000
(1619555216.318611) can0 105#0000000000005EA1
(1619555212.868862) can0 101#0000002049440A48
(1619555212.868862) can0 431#0000000000000000
(1619555212.868862) can0 1A0#00C0C64000000A2F
(1619555216.328668) can0 105#0000000000005FA0
(1619555216.338619) can0 105#00000000000050AF
(1619555212.868862) can0 101#0000002049440B47
(1619555212.868862) can0 431#0000000000000000
(1619555212.868862) can0 1A0#00C0C64000000B2E
(1619555216.348607) can0 105#00000000000051AE
(1619555216.358634) can0 105#00010000000052AC
(1619555212.868862) can0 101#0000002049440C46
(1619555212.868862) can0 431#0000000000000000
(1619555212.868862) can0 1A0#00C0C64000000C2D
(1619555216.358824) can0 106#003E000000000AB7
(1619555216.359066) can0 107#0494000000000000
(1619555212.868862) can0 101#0000002049440D45
(1619555212.868862) can0 431#0000000000000000
(1619555212.868862) can0 1A0#00C0C64000000D2C
(1619555216.368752) can0 105#00010000000053AB
(1619555216.378636) can0 105#00010000000054AA
(1619555212.868862) can0 101#0000002049440E44
(1619555212.868862) can0 431#0000000000000000
(1619555212.868862) can0 1A0#00C0C64000000E2B
(1619555216.388648) can0 105#00010000000055A9
(1619555216.398647) can0 105#00000000000056A9
(1619555212.868862) can0 101#0000002049440F43
(1619555212.868862) can0 431#0000000000000000
(1619555212.868862) can0 1A0#00C0C64000000F2A
(1619555216.408703) can0 105#00000000000057A8
(1619555216.408884) can0 106#003E000000000BB6
(1619555212.868862) can0 101#0000002049840012
(1619555212.868862) can0 431#0000000000000000
(1619555212.868862) can0 1A0#00C0C64400000035
(1619555216.409240) can0 107#049E000000000000
(1619555216.418669) can0 105#00000000000058A7
(1619555212.868862) can0 101#0000002049840111
(1619555212.868862) can0 431#0000000000000000
(1619555212.868862) can0 1A0#00C0C64400000134
(1619555216.428722) can0 105#00000000000059A6
(1619555216.438718) can0 105#0000000000005AA5
(1619555212.868862) can0 101#0000002049840210
(1619555212.868862) can0 431#0000000000000000
(1619555212.868862) can0 1A0#00C0C64400000233
(1619555216.448639) can0 105#0000000000005BA4
(1619555216.458673) can0 105#0000000000005CA3
(1619555212.868862) can0 101#000000204984030F
(1619555212.868862) can0 431#0000000000000000
(1619555212.868862) can0 1A0#00C0C64400000332
(1619555216.458954) can0 106#003E000000000CB5
(1619555216.459085) can0 107#04A9000000000000
(1619555212.868862) can0 101#000000204984040E
(1619555212.868862) can0 431#0000000000000000
(1619555212.868862) can0 1A0#00C0C64400000431
(1619555216.468695) can0 105#0000000000005DA2
(1619555216.478758) can0 105#0000000000005EA1
(1619555212.868862) can0 101#000000204984050D
(1619555212.868862) can0 431#0000000000000000
(1619555212.868862) can0 1A0#00C0C64400000530
(1619555216.488680) can0 105#0000000000005FA0
(1619555212.868862) can0 101#000000204984060C
(1619555212.868862) can0 431#0000000000000000
(1619555212.868862) can0 1A0#00C0C6440000062F
(1619555216.498622) can0 105#00000000000050AF
(1619555216.508688) can0 105#00000000000051AE
(1619555212.868862) can0 101#000000204984070B
(1619555212.868862) can0 431#0000000000000000
(1619555212.868862) can0 1A0#00C0C6440000072E
(1619555216.508926) can0 106#003E000000000DB4
(1619555216.509092) can0 107#04B5000000000000
(1619555212.868862) can0 101#000000204984080A
(1619555212.868862) can0 431#0000000000000000
(1619555212.868862) can0 1A0#00C0C6440000082D
(1619555216.518632) can0 105#00000000000052AD
(1619555216.528668) can0 105#00000000000053AC
(1619555212.868862) can0 101#0000002049840909
(1619555212.868862) can0 431#0000000000000000
(1619555212.868862) can0 1A0#00C0C6440000092C
(1619555216.538648) can0 105#00000000000054AB
(1619555216.548776) can0 105#00000000000055AA
(1619555212.868862) can0 101#0000002049840A08
(1619555212.868862) can0 431#0000000000000000
(1619555212.868862) can0 1A0#00C0C64400000A2B
(1619555216.558691) can0 105#00000000000056A9
(1619555216.558977) can0 106#003E000000000EB3
(1619555212.868862) can0 101#0000002049840B07
(1619555212.868862) can0 431#0000000000000000
(1619555212.868862) can0 1A0#00C0C64400000B2A
(1619555216.559234) can0 107#04C1000000000000
(1619555216.568720) can0 105#00000000000057A8
(1619555212.868862) can0 101#0000002049840C06
(1619555212.868862) can0 431#0000000000000000
(1619555212.868862) can0 1A0#00C0C64400000C29
(1619555216.578656) can0 105#00000000000058A7
(1619555216.588691) can0 105#00000000000059A6
(1619555212.868862) can0 101#0000002049840D05
(1619555212.868862) can0 431#0000000000000000
(1619555212.868862) can0 1A0#00C0C64400000D28
(1619555216.598662) can0 105#0001000000005AA4
(1619555212.868862) can0 101#0000002049840E04
(1619555212.868862) can0 431#0000000000000000
(1619555212.868862) can0 1A0#00C0C64400000E27
(1619555216.608667) can0 105#0001000000005BA3
(1619555216.608952) can0 106#003E000000000FB2
(1619555212.868862) can0 101#0000002049840F03
(1619555212.868862) can0 431#0000000000000000
(1619555212.868862) can0 1A0#00C0C64400000F26
(1619555216.609068) can0 107#04CF000000000000
(1619555216.618721) can0 105#0001000000005CA2
(1619555212.868862) can0 101#0000002049840012
(1619555212.868862) can0 431#0000000000000000
(1619555212.868862) can0 1A0#00C0C64400000035
(1619555216.628682) can0 105#0001000000005DA1
(1619555216.638606) can0 105#0001000000005EA0
(1619555212.868862) can0 101#00000020798401E1
(1619555212.868862) can0 431#0000000000000000
(1619555212.868862) can0 1A0#00C0C65000000128
(1619555216.648669) can0 105#0002000000005F9E
(1619555212.868862) can0 101#00000020798402E0
(1619555212.868862) can0 431#0000000000000000
(1619555212.868862) can0 1A0#00C0C65000000227
(1619555216.658624) can0 105#00020000000050AD
(1619555216.658853) can0 106#003E0000000000C1
(1619555212.868862) can0 101#00000020798403DF
(1619555212.868862) can0 431#0000000000000000
(1619555212.868862) can0 1A0#00C0C65000000326
(1619555216.659100) can0 107#04D2000000000000
(1619555216.668641) can0 105#00010000000051AD
(1619555212.868862) can0 101#00000020798404DE
(1619555212.868862) can0 431#0000000000000000
(1619555212.868862) can0 1A0#00C0C65000000425
(1619555216.678655) can0 105#00020000000052AB
(1619555216.688773) can0 105#00020000000053AA
(1619555212.868862) can0 101#00000020798405DD
(1619555212.868862) can0 431#0000000000000000
(1619555212.868862) can0 1A0#00C0C65000000524
(1619555216.698637) can0 105#00010000000054AA
(1619555216.708683) can0 105#00010000000055A9
(1619555212.868862) can0 101#00000020798406DC
(1619555212.868862) can0 431#0000000000000000
(1619555212.868862) can0 1A0#00C0C65000000623
(1619555216.708846) can0 106#003E0000000001C0
(1619555216.709110) can0 107#04E2000000000000
(1619555212.868862) can0 101#00000020798407DB
(1619555212.868862) can0 431#0000000000000000
(1619555212.868862) can0 1A0#00C0C65000000722
(1619555216.718649) can0 105#00010000000056A8
(1619555216.728621) can0 105#00010000000057A7
(1619555212.868862) can0 101#00000020798408DA
(1619555212.868862) can0 431#0000000000000000
(1619555212.868862) can0 1A0#00C0C65000000821
(1619555216.738755) can0 105#00010000000058A6
(1619555216.748629) can0 105#00010000000059A5
(1619555212.868862) can0 101#00000020798409D9
(1619555212.868862) can0 431#0000000000000000
(1619555212.868862) can0 1A0#00C0C65000000920
(1619555216.758761) can0 105#0001000000005AA4
(1619555212.868862) can0 101#0000002079840AD8
(1619555212.868862) can0 431#0000000000000000
(1619555212.868862) can0 1A0#00C0C65000000A1F
(1619555216.758884) can0 106#003E0000000002BF
(1619555216.759335) can0 107#04E6000000000000
(1619555212.868862) can0 101#0000002079840BD7
(1619555212.868862) can0 431#0000000000000000
(1619555212.868862) can0 1A0#00C0C65000000B1E
(1619555216.768643) can0 105#0001000000005BA3
(1619555216.778687) can0 105#0001000000005CA2
(1619555212.868862) can0 101#0000002079840CD6
(1619555212.868862) can0 431#0000000000000000
(1619555212.868862) can0 1A0#00C0C65000000C1D
(1619555216.788630) can0 105#0001000000005DA1
(1619555216.798741) can0 105#0001000000005EA0
(1619555212.868862) can0 101#0000002079840DD5
(1619555212.868862) can0 431#0000000000000000
(1619555212.868862) can0 1A0#00C0C65000000D1C
(1619555216.808730) can0 105#0001000000005F9F
(1619555212.868862) can0 101#0000002079840ED4
(1619555212.868862) can0 431#0000000000000000
(1619555212.868862) can0 1A0#00C0C65000000E1B
(1619555216.808844) can0 106#003E0000000003BE
(1619555216.809094) can0 107#04F3000000000000
(1619555212.868862) can0 101#0000002079840FD3
(1619555212.868862) can0 431#0000000000000000
(1619555212.868862) can0 1A0#00C0C65000000F1A
(1619555216.818664) can0 105#00010000000050AE
(1619555216.828669) can0 105#00010000000051AD
(1619555212.868862) can0 101#00000020798400E2
(1619555212.868862) can0 431#0000000000000000
(1619555212.868862) can0 1A0#00C0C65000000029
(1619555216.838668) can0 105#00010000000052AC
(1619555216.848711) can0 105#00020000000053AA
(1619555212.868862) can0 101#00000020798401E1
(1619555212.868862) can0 431#0000000000000000
(1619555212.868862) can0 1A0#00C0C65000000128
(1619555216.858643) can0 105#00020000000054A9
(1619555216.858891) can0 106#003E0000000004BD
(1619555212.868862) can0 101#00000020798402E0
(1619555212.868862) can0 431#0000000000000000
(1619555212.868862) can0 1A0#00C0C65000000227
(1619555216.859124) can0 107#04F9000000000000
(1619555216.868743) can0 105#00010000000055A9
(1619555212.868862) can0 101#00000020798403DF
(1619555212.868862) can0 431#0000000000000000
(1619555212.868862) can0 1A0#00C0C65000000326
(1619555216.878676) can0 105#00010000000056A8
(1619555216.888624) can0 105#00010000000057A7
(1619555212.868862) can0 101#00000020798404DE
(1619555212.868862) can0 431#0000000000000000
(1619555212.868862) can0 1A0#00C0C65000000425
(1619555216.898677) can0 105#00010000000058A6
(1619555216.908641) can0 105#00010000000059A5
(1619555212.868862) can0 101#00000020798405DD
(1619555212.868862) can0 431#0000000000000000
(1619555212.868862) can0 1A0#00C0C65000000524
(1619555216.908903) can0 106#003E0000000005BC
(1619555216.909081) can0 107#04FF000000000000
(1619555212.868862) can0 101#00000020798406DC
(1619555212.868862) can0 431#0000000000000000
(1619555212.868862) can0 1A0#00C0C65000000623
(1619555216.918648) can0 105#0001000000005AA4
(1619555216.928662) can0 105#0001000000005BA3
(1619555212.868862) can0 101#00000020798407DB
(1619555212.868862) can0 431#0000000000000000
(1619555212.868862) can0 1A0#00C0C65000000722
(1619555216.938767) can0 105#0001000000005CA2
(1619555216.948689) can0 105#0001000000005DA1
(1619555212.868862) can0 101#00000020798408DA
(1619555212.868862) can0 431#0000000000000000
(1619555212.868862) can0 1A0#00C0C65000000821
(1619555216.958656) can0 105#0001000000005EA0
(1619555216.958874) can0 106#003E0000000006BB
(1619555212.868862) can0 101#00000020798409D9
(1619555212.868862) can0 431#0000000000000000
(1619555212.868862) can0 1A0#00C0C65000000920
(1619555216.959116) can0 107#050E000000000000
(1619555216.968653) can0 105#0000000000005FA0
(1619555212.868862) can0 101#0000002079840AD8
(1619555212.868862) can0 431#0000000000000000
(1619555212.868862) can0 1A0#00C0C65000000A1F
(1619555216.978651) can0 105#00000000000050AF
(1619555216.988886) can0 105#00000000000051AE
(1619555212.868862) can0 101#0000002079840BD7
(1619555212.868862) can0 431#0000000000000000
(1619555212.868862) can0 1A0#00C0C65000000B1E
(1619555216.998648) can0 105#00000000000052AD
(1619555217.008795) can0 105#00000000000053AC
(1619555212.868862) can0 101#0000002079840CD6
(1619555212.868862) can0 431#0000000000000000
(1619555212.868862) can0 1A0#00C0C65000000C1D
(1619555217.008918) can0 106#003E0000000007BA
(1619555212.868862) can0 101#0000002079840DD5
(1619555212.868862) can0 431#0000000000000000
(1619555212.868862) can0 1A0#00C0C65000000D1C
(1619555217.009421) can0 107#0517000000000000
(1619555217.018690) can0 105#00010000000054AA
(1619555212.868862) can0 101#0000002079840ED4
(1619555212.868862) can0 431#0000000000000000
(1619555212.868862) can0 1A0#00C0C65000000E1B
(1619555217.028678) can0 105#00010000000055A9
(1619555217.038678) can0 105#00010000000056A8
(1619555212.868862) can0 101#0000002079840FD3
(1619555212.868862) can0 431#0000000000000000
(1619555212.868862) can0 1A0#00C0C65000000F1A
(1619555217.048699) can0 105#00010000000057A7
(1619555217.058891) can0 105#00010000000058A6
(1619555212.868862) can0 101#00000020798400E2
(1619555212.868862) can0 431#0000000000000000
(1619555212.868862) can0 1A0#00C0C65000000029
(1619555217.059051) can0 106#003E0000000008B9
(1619555217.059159) can0 107#0523000000000000
(1619555212.868862) can0 101#00000020798401E1
(1619555212.868862) can0 431#0000000000000000
(1619555212.868862) can0 1A0#00C0C65000000128
(1619555217.068670) can0 105#00010000000059A5
(1619555217.078780) can0 105#0000000000005AA5
(1619555212.868862) can0 101#00000020798402E0
(1619555212.868862) can0 431#0000000000000000
(1619555212.868862) can0 1A0#00C0C65000000227
(1619555217.088693) can0 105#0000000000005BA4
(1619555217.098705) can0 105#0000000000005CA3
(1619555212.868862) can0 101#00000020798403DF
(1619555212.868862) can0 431#0000000000000000
(1619555212.868862) can0 1A0#00C0C65000000326
(1619555217.108714) can0 105#0000000000005DA2
(1619555217.109021) can0 106#003E0000000009B8
(1619555212.868862) can0 101#00000020798404DE
(1619555212.868862) can0 431#0000000000000000
(1619555212.868862) can0 1A0#00C0C65000000425
(1619555217.109085) can0 107#0525000000000000
(1619555217.118654) can0 105#0000000000005EA1
(1619555212.868862) can0 101#00000020798405DD
(1619555212.868862) can0 431#0000000000000000
(1619555212.868862) can0 1A0#00C0C65000000524
(1619555217.128692) can0 105#0000000000005FA0
(1619555217.148783) can0 105#00010000000051AD
(1619555212.868862) can0 101#00000020798406DC
(1619555212.868862) can0 431#0000000000000000
(1619555212.868862) can0 1A0#00C0C65000000623
(1619555217.168684) can0 105#00010000000053AB
(1619555217.188667) can0 105#00010000000055A9
(1619555212.868862) can0 101#00000020798407DB
(1619555212.868862) can0 431#0000000000000000
(1619555212.868862) can0 1A0#00C0C65000000722
(1619555217.198724) can0 105#00000000000056A9
(1619555217.218778) can0 105#00000000000058A7
(1619555212.868862) can0 101#00000020798408DA
(1619555212.868862) can0 431#0000000000000000
(1619555212.868862) can0 1A0#00C0C65000000821
(1619555217.238711) can0 105#0000000000005AA5
(1619555217.258671) can0 105#0000000000005CA3
(1619555212.868862) can0 101#00000020798409D9
(1619555212.868862) can0 431#0000000000000000
(1619555212.868862) can0 1A0#00C0C65000000920
(1619555217.268768) can0 105#0000000000005DA2
(1619555217.288816) can0 105#0000000000005FA0
(1619555212.868862) can0 101#0000002079840AD8
(1619555212.868862) can0 431#0000000000000000
(1619555212.868862) can0 1A0#00C0C65000000A1F
(1619555217.308743) can0 105#00000000000051AE
(1619555217.328671) can0 105#00000000000053AC
(1619555212.868862) can0 101#0000002079840BD7
(1619555212.868862) can0 431#0000000000000000
(1619555212.868862) can0 1A0#00C0C65000000B1E
(1619555217.338780) can0 105#00000000000054AB
(1619555217.358783) can0 105#00000000000056A9
(1619555212.868862) can0 101#0000002079840CD6
(1619555212.868862) can0 431#0000000000000000
(1619555212.868862) can0 1A0#00C0C65000000C1D
(1619555217.378667) can0 105#00000000000058A7
(1619555212.868862) can0 101#0000002079840DD5
(1619555212.868862) can0 431#0000000000000000
(1619555212.868862) can0 1A0#00C0C65000000D1C
(1619555217.388740) can0 105#00000000000059A6
(1619555217.408644) can0 105#0000000000005BA4
(1619555212.868862) can0 101#0000002079840ED4
(1619555212.868862) can0 431#0000000000000000
(1619555212.868862) can0 1A0#00C0C65000000E1B
(1619555217.428814) can0 105#0000000000005DA2
(1619555217.438830) can0 105#0000000000005EA1
(1619555212.868862) can0 101#0000002079840FD3
(1619555212.868862) can0 431#0000000000000000
(1619555212.868862) can0 1A0#00C0C65000000F1A
(1619555217.458750) can0 105#00000000000050AF
(1619555217.459101) can0 106#003E0000000000C1
(1619555212.868862) can0 101#00000020798400E2
(1619555212.868862) can0 431#0000000000000000
(1619555212.868862) can0 1A0#00C0C65000000029
(1619555217.488718) can0 105#00000000000053AC
(1619555217.498850) can0 105#00000000000054AB
(1619555212.868862) can0 101#00000020798401E1
(1619555212.868862) can0 431#0000000000000000
(1619555212.868862) can0 1A0#00C0C65000000128
(1619555217.508752) can0 105#00000000000055AA
(1619555217.528852) can0 105#00000000000057A8
(1619555212.868862) can0 101#00000020798402E0
(1619555212.868862) can0 431#0000000000000000
(1619555212.868862) can0 1A0#00C0C65000000227
(1619555217.548823) can0 105#00000000000059A6
(1619555212.868862) can0 101#00000020798403DF
(1619555212.868862) can0 431#0000000000000000
(1619555212.868862) can0 1A0#00C0C65000000326
(1619555217.558724) can0 105#0000000000005AA5
(1619555212.868862) can0 101#00000020798404DE
(1619555212.868862) can0 431#0000000000000000
(1619555212.868862) can0 1A0#00C0C65000000425
(1619555217.568756) can0 105#0000000000005BA4
(1619555217.578778) can0 105#0000000000005CA3
(1619555212.868862) can0 101#00000020798405DD
(1619555212.868862) can0 431#0000000000000000
(1619555212.868862) can0 1A0#00C0C65000000524
(1619555217.598736) can0 105#0000000000005EA1
(1619555217.618766) can0 105#00000000000050AF
(1619555212.868862) can0 101#00000020798406DC
(1619555212.868862) can0 431#0000000000000000
(1619555212.868862) can0 1A0#00C0C65000000623
(1619555217.638713) can0 105#00010000000052AC
(1619555217.648703) can0 105#00010000000053AB
(1619555212.868862) can0 101#00000020798407DB
(1619555212.868862) can0 431#0000000000000000
(1619555212.868862) can0 1A0#00C0C65000000722
(1619555217.668807) can0 105#00000000000055AA
(1619555217.688854) can0 105#00000000000057A8
(1619555212.868862) can0 101#00000020798408DA
(1619555212.868862) can0 431#0000000000000000
(1619555212.868862) can0 1A0#00C0C65000000821
(1619555217.708781) can0 105#00000000000059A6
(1619555217.718804) can0 105#0000000000005AA5
(1619555217.738737) can0 105#0000000000005CA3
(1619555212.868862) can0 101#00000020798409D9
(1619555212.868862) can0 431#0000000000000000
(1619555212.868862) can0 1A0#00C0C65000000920
(1619555217.748853) can0 105#0000000000005DA2
(1619555212.868862) can0 101#0000002079840AD8
(1619555212.868862) can0 431#0000000000000000
(1619555212.868862) can0 1A0#00C0C65000000A1F
(1619555217.768764) can0 105#0000000000005FA0
(1619555217.778761) can0 105#00000000000050AF
(1619555212.868862) can0 101#0000002079840BD7
(1619555212.868862) can0 431#0000000000000000
(1619555212.868862) can0 1A0#00C0C65000000B1E
(1619555217.798752) can0 105#00000000000052AD
(1619555217.818816) can0 105#00000000000054AB
(1619555212.868862) can0 101#0000002079840CD6
(1619555212.868862) can0 431#0000000000000000
(1619555212.868862) can0 1A0#00C0C65000000C1D
(1619555217.838706) can0 105#00000000000056A9
(1619555212.868862) can0 101#0000002079840DD5
(1619555212.868862) can0 431#0000000000000000
(1619555212.868862) can0 1A0#00C0C65000000D1C
(1619555217.848719) can0 105#00000000000057A8
(1619555217.868920) can0 105#00000000000059A6
(1619555212.868862) can0 101#0000002079840ED4
(1619555212.868862) can0 431#0000000000000000
(1619555212.868862) can0 1A0#00C0C65000000E1B
(1619555217.888754) can0 105#0001000000005BA3
(1619555212.868862) can0 101#0000002079840FD3
(1619555212.868862) can0 431#0000000000000000
(1619555212.868862) can0 1A0#00C0C65000000F1A
(1619555217.908828) can0 105#0001000000005DA1
(1619555217.928751) can0 105#0000000000005FA0
(1619555212.868862) can0 101#00000020798400E2
(1619555212.868862) can0 431#0000000000000000
(1619555212.868862) can0 1A0#00C0C65000000029
(1619555217.938724) can0 105#00000000000050AF
(1619555217.958866) can0 105#00000000000052AD
(1619555212.868862) can0 101#00000020798401E1
(1619555212.868862) can0 431#0000000000000000
(1619555212.868862) can0 1A0#00C0C65000000128
(1619555217.968689) can0 105#00000000000053AC
(1619555217.978740) can0 105#00000000000054AB
(1619555212.868862) can0 101#00000020798402E0
(1619555212.868862) can0 431#0000000000000000
(1619555212.868862) can0 1A0#00C0C65000000227
(1619555217.998710) can0 105#00000000000056A9
(1619555212.868862) can0 101#00000020798403DF
(1619555212.868862) can0 431#0000000000000000
(1619555212.868862) can0 1A0#00C0C65000000326
(1619555218.008770) can0 105#00000000000057A8
(1619555218.018894) can0 105#00000000000058A7
(1619555212.868862) can0 101#00000020798404DE
(1619555212.868862) can0 431#0000000000000000
(1619555212.868862) can0 1A0#00C0C65000000425
(1619555218.038762) can0 105#0000000000005AA5
(1619555218.048739) can0 105#0000000000005BA4
(1619555212.868862) can0 101#00000020798405DD
(1619555212.868862) can0 431#0000000000000000
(1619555212.868862) can0 1A0#00C0C65000000524
(1619555218.078761) can0 105#0000000000005EA1
(1619555212.868862) can0 101#00000020798406DC
(1619555212.868862) can0 431#0000000000000000
(1619555212.868862) can0 1A0#00C0C65000000623
(1619555218.088782) can0 105#0000000000005FA0
(1619555218.108771) can0 105#00000000000051AE
(1619555212.868862) can0 101#00000020798407DB
(1619555212.868862) can0 431#0000000000000000
(1619555212.868862) can0 1A0#00C0C65000000722
(1619555218.128755) can0 105#00010000000053AB
(1619555218.138794) can0 105#00010000000054AA
(1619555212.868862) can0 101#00000020798408DA
(1619555212.868862) can0 431#0000000000000000
(1619555212.868862) can0 1A0#00C0C65000000821
(1619555218.158761) can0 105#00000000000056A9
(1619555218.168871) can0 105#00000000000057A8
(1619555212.868862) can0 101#00000020798409D9
(1619555212.868862) can0 431#0000000000000000
(1619555212.868862) can0 1A0#00C0C65000000920
(1619555218.188785) can0 105#00000000000059A6
(1619555212.868862) can0 101#0000002079840AD8
(1619555212.868862) can0 431#0000000000000000
(1619555212.868862) can0 1A0#00C0C65000000A1F
(1619555218.198767) can0 105#0000000000005AA5
(1619555218.218753) can0 105#0000000000005CA3
(1619555212.868862) can0 101#0000002079840BD7
(1619555212.868862) can0 431#0000000000000000
(1619555212.868862) can0 1A0#00C0C65000000B1E
(1619555218.228858) can0 105#0000000000005DA2
(1619555218.248748) can0 105#0000000000005FA0
(1619555212.868862) can0 101#0000002079840CD6
(1619555212.868862) can0 431#0000000000000000
(1619555212.868862) can0 1A0#00C0C65000000C1D
(1619555218.258803) can0 105#00000000000050AF
(1619555218.278759) can0 105#00000000000052AD
(1619555212.868862) can0 101#0000002079840DD5
(1619555212.868862) can0 431#0000000000000000
(1619555212.868862) can0 1A0#00C0C65000000D1C
(1619555218.288799) can0 105#00000000000053AC
(1619555218.298753) can0 105#00000000000054AB
(1619555212.868862) can0 101#0000002079840ED4
(1619555212.868862) can0 431#0000000000000000
(1619555212.868862) can0 1A0#00C0C65000000E1B
(1619555218.308796) can0 105#00000000000055AA
(1619555218.328811) can0 105#00000000000057A8
(1619555212.868862) can0 101#0000002079840FD3
(1619555212.868862) can0 431#0000000000000000
(1619555212.868862) can0 1A0#00C0C65000000F1A
(1619555218.338929) can0 105#00000000000058A7
(1619555218.358817) can0 105#0000000000005AA5
(1619555212.868862) can0 101#00000020798400E2
(1619555212.868862) can0 431#0000000000000000
(1619555212.868862) can0 1A0#00C0C65000000029
(1619555218.378726) can0 105#0000000000005CA3
(1619555218.398855) can0 105#0000000000005EA1
(1619555212.868862) can0 101#00000020798401E1
(1619555212.868862) can0 431#0000000000000000
(1619555212.868862) can0 1A0#00C0C65000000128
(1619555218.418741) can0 105#00000000000050AF
(1619555218.428816) can0 105#00010000000051AD
(1619555212.868862) can0 101#00000020798402E0
(1619555212.868862) can0 431#0000000000000000
(1619555212.868862) can0 1A0#00C0C65000000227
(1619555218.448897) can0 105#00010000000053AB
(1619555218.458792) can0 105#00000000000054AB
(1619555212.868862) can0 101#00000020798403DF
(1619555212.868862) can0 431#0000000000000000
(1619555212.868862) can0 1A0#00C0C65000000326
(1619555218.468795) can0 105#00000000000055AA
(1619555218.488809) can0 105#00000000000057A8
(1619555212.868862) can0 101#00000020798404DE
(1619555212.868862) can0 431#0000000000000000
(1619555212.868862) can0 1A0#00C0C65000000425
(1619555218.498796) can0 105#00000000000058A7
(1619555218.518743) can0 105#0001000000005AA4
(1619555212.868862) can0 101#00000020798405DD
(1619555212.868862) can0 431#0000000000000000
(1619555212.868862) can0 1A0#00C0C65000000524
(1619555218.528743) can0 105#0001000000005BA3
(1619555218.548882) can0 105#0001000000005DA1
(1619555212.868862) can0 101#00000020798406DC
(1619555212.868862) can0 431#0000000000000000
(1619555212.868862) can0 1A0#00C0C65000000623
(1619555218.558847) can0 105#0001000000005EA0
(1619555212.868862) can0 101#00000020798407DB
(1619555212.868862) can0 431#0000000000000000
(1619555212.868862) can0 1A0#00C0C65000000722
(1619555218.578778) can0 105#00000000000050AF
(1619555218.588871) can0 105#00000000000051AE
(1619555212.868862) can0 101#00000020798408DA
(1619555212.868862) can0 431#0000000000000000
(1619555212.868862) can0 1A0#00C0C65000000821
(1619555218.608779) can0 105#00000000000053AC
(1619555218.618780) can0 105#00000000000054AB
(1619555212.868862) can0 101#00000020798409D9
(1619555212.868862) can0 431#0000000000000000
(1619555212.868862) can0 1A0#00C0C65000000920
(1619555218.638833) can0 105#00000000000056A9
(1619555212.868862) can0 101#0000002079840AD8
(1619555212.868862) can0 431#0000000000000000
(1619555212.868862) can0 1A0#00C0C65000000A1F
(1619555218.658954) can0 105#00000000000058A7
(1619555212.868862) can0 101#0000002079840BD7
(1619555212.868862) can0 431#0000000000000000
(1619555212.868862) can0 1A0#00C0C65000000B1E
(1619555218.678781) can0 105#0000000000005AA5
(1619555218.688808) can0 105#0000000000005BA4
(1619555212.868862) can0 101#0000002079840CD6
(1619555212.868862) can0 431#0000000000000000
(1619555212.868862) can0 1A0#00C0C65000000C1D
(1619555218.708794) can0 105#0000000000005DA2
(1619555218.718866) can0 105#0000000000005EA1
(1619555212.868862) can0 101#0000002079840DD5
(1619555212.868862) can0 431#0000000000000000
(1619555212.868862) can0 1A0#00C0C65000000D1C
(1619555218.728913) can0 105#0000000000005FA0
(1619555212.868862) can0 101#0000002079840ED4
(1619555212.868862) can0 431#0000000000000000
(1619555212.868862) can0 1A0#00C0C65000000E1B
(1619555218.748841) can0 105#00010000000051AD
(1619555218.758834) can0 105#00010000000052AC
(1619555212.868862) can0 101#0000002079840FD3
(1619555212.868862) can0 431#0000000000000000
(1619555212.868862) can0 1A0#00C0C65000000F1A
(1619555218.788819) can0 105#00000000000055AA
(1619555218.798859) can0 105#00000000000056A9
(1619555212.868862) can0 101#00000020798400E2
(1619555212.868862) can0 431#0000000000000000
(1619555212.868862) can0 1A0#00C0C65000000029
(1619555218.808866) can0 105#00000000000057A8
(1619555218.818991) can0 105#00000000000058A7
(1619555212.868862) can0 101#00000020798401E1
(1619555212.868862) can0 431#0000000000000000
(1619555212.868862) can0 1A0#00C0C65000000128
(1619555218.838854) can0 105#0001000000005AA4
(1619555212.868862) can0 101#00000020798402E0
(1619555212.868862) can0 431#0000000000000000
(1619555212.868862) can0 1A0#00C0C65000000227
(1619555218.858812) can0 105#0001000000005CA2
(1619555218.868848) can0 105#0001000000005DA1
(1619555212.868862) can0 101#00000020798403DF
(1619555212.868862) can0 431#0000000000000000
(1619555212.868862) can0 1A0#00C0C65000000326
(1619555218.878928) can0 105#0001000000005EA0
(1619555212.868862) can0 101#00000020798404DE
(1619555212.868862) can0 431#0000000000000000
(1619555212.868862) can0 1A0#00C0C65000000425
(1619555218.908824) can0 105#00000000000051AE
(1619555218.918933) can0 105#00000000000052AD
(1619555212.868862) can0 101#00000020798405DD
(1619555212.868862) can0 431#0000000000000000
(1619555212.868862) can0 1A0#00C0C65000000524
(1619555218.938812) can0 105#00020000000054A9
(1619555212.868862) can0 101#00000020798406DC
(1619555212.868862) can0 431#0000000000000000
(1619555212.868862) can0 1A0#00C0C65000000623
(1619555218.948818) can0 105#00010000000055A9
(1619555218.978862) can0 105#00010000000058A6
(1619555212.868862) can0 101#00000020798407DB
(1619555212.868862) can0 431#0000000000000000
(1619555212.868862) can0 1A0#00C0C65000000722
(1619555218.998943) can0 105#0001000000005AA4
(1619555212.868862) can0 101#00000020798408DA
(1619555212.868862) can0 431#0000000000000000
(1619555212.868862) can0 1A0#00C0C65000000821
(1619555219.008861) can0 105#0001000000005BA3
(1619555212.868862) can0 101#00000020798409D9
(1619555212.868862) can0 431#0000000000000000
(1619555212.868862) can0 1A0#00C0C65000000920
(1619555219.028840) can0 105#0001000000005DA1
(1619555219.038903) can0 105#0001000000005EA0
(1619555212.868862) can0 101#0000002079840AD8
(1619555212.868862) can0 431#0000000000000000
(1619555212.868862) can0 1A0#00C0C65000000A1F
(1619555219.058832) can0 105#00010000000050AE
(1619555212.868862) can0 101#0000002079840BD7
(1619555212.868862) can0 431#0000000000000000
(1619555212.868862) can0 1A0#00C0C65000000B1E
(1619555219.068801) can0 105#00010000000051AD
(1619555219.088804) can0 105#00010000000053AB
(1619555212.868862) can0 101#0000002079840CD6
(1619555212.868862) can0 431#0000000000000000
(1619555212.868862) can0 1A0#00C0C65000000C1D
(1619555219.108956) can0 105#00000000000055AA
(1619555219.118842) can0 105#00000000000056A9
(1619555212.868862) can0 101#0000002079840DD5
(1619555212.868862) can0 431#0000000000000000
(1619555212.868862) can0 1A0#00C0C65000000D1C
(1619555219.138840) can0 105#00000000000058A7
(1619555219.148933) can0 105#00000000000059A6
(1619555212.868862) can0 101#0000002079840ED4
(1619555212.868862) can0 431#0000000000000000
(1619555212.868862) can0 1A0#00C0C65000000E1B
(1619555219.168806) can0 105#0000000000005BA4
(1619555212.868862) can0 101#0000002079840FD3
(1619555212.868862) can0 431#0000000000000000
(1619555212.868862) can0 1A0#00C0C65000000F1A
(1619555219.178817) can0 105#0000000000005CA3
(1619555212.868862) can0 101#00000020798400E2
(1619555212.868862) can0 431#0000000000000000
(1619555212.868862) can0 1A0#00C0C65000000029
(1619555219.198847) can0 105#0000000000005EA1
(1619555219.218931) can0 105#00000000000050AF
(1619555212.868862) can0 101#00000020798401E1
(1619555212.868862) can0 431#0000000000000000
(1619555212.868862) can0 1A0#00C0C65000000128
(1619555219.228886) can0 105#00000000000051AE
(1619555219.248821) can0 105#00000000000053AC
(1619555212.868862) can0 101#00000020798402E0
(1619555212.868862) can0 431#0000000000000000
(1619555212.868862) can0 1A0#00C0C65000000227
(1619555219.258934) can0 105#00000000000054AB
(1619555219.278824) can0 105#00000000000056A9
(1619555212.868862) can0 101#00000020798403DF
(1619555212.868862) can0 431#0000000000000000
(1619555212.868862) can0 1A0#00C0C65000000326
(1619555219.288791) can0 105#00000000000057A8
(1619555212.868862) can0 101#00000020798404DE
(1619555212.868862) can0 431#0000000000000000
(1619555212.868862) can0 1A0#00C0C65000000425
(1619555219.308968) can0 105#00000000000059A6
(1619555219.318793) can0 105#0000000000005AA5
(1619555212.868862) can0 101#00000020798405DD
(1619555212.868862) can0 431#0000000000000000
(1619555212.868862) can0 1A0#00C0C65000000524
(1619555219.328885) can0 105#0000000000005BA4
(1619555212.868862) can0 101#00000020798406DC
(1619555212.868862) can0 431#0000000000000000
(1619555212.868862) can0 1A0#00C0C65000000623
(1619555219.348783) can0 105#0000000000005DA2
(1619555212.868862) can0 101#00000020798407DB
(1619555212.868862) can0 431#0000000000000000
(1619555212.868862) can0 1A0#00C0C65000000722
(1619555219.368950) can0 105#0000000000005FA0
(1619555219.388839) can0 105#00000000000051AE
(1619555212.868862) can0 101#20000020798408BA
(1619555212.868862) can0 431#0000000000000000
(1619555212.868862) can0 1A0#00C0C65000000821
(1619555219.398878) can0 105#00000000000052AD
(1619555212.868862) can0 101#20000020798409B9
(1619555212.868862) can0 431#0000000000000000
(1619555212.868862) can0 1A0#00C0C65000000920
(1619555219.418928) can0 105#00000000000054AB
(1619555219.428871) can0 105#00000000000055AA
(1619555212.868862) can0 101#2000002079840AB8
(1619555212.868862) can0 431#0000000000000000
(1619555212.868862) can0 1A0#00C0C65000000A1F
(1619555219.438851) can0 105#00000000000056A9
(1619555219.458979) can0 105#00010000000058A6
(1619555212.868862) can0 101#2000002079840BB7
(1619555212.868862) can0 431#0000000000000000
(1619555212.868862) can0 1A0#00C0C65000000B1E
(1619555219.468821) can0 105#00010000000059A5
(1619555219.478965) can0 105#0001000000005AA4
(1619555212.868862) can0 101#2000002079840CB6
(1619555212.868862) can0 431#0000000000000000
(1619555212.868862) can0 1A0#00C0C65000000C1D
(1619555219.498881) can0 105#0000000000005CA3
(1619555212.868862) can0 101#2000002079840DB5
(1619555212.868862) can0 431#0000000000000000
(1619555212.868862) can0 1A0#00C0C65000000D1C
(1619555219.518930) can0 105#0000000000005EA1
(1619555212.868862) can0 101#2000002079840EB4
(1619555212.868862) can0 431#0000000000000000
(1619555212.868862) can0 1A0#00C0C65000000E1B
(1619555219.529006) can0 105#0000000000005FA0
(1619555212.868862) can0 101#2000002079840FB3
(1619555212.868862) can0 431#0000000000000000
(1619555212.868862) can0 1A0#00C0C65000000F1A
(1619555219.548891) can0 105#00000000000051AE
(1619555212.868862) can0 101#20000020798400C2
(1619555212.868862) can0 431#0000000000000000
(1619555212.868862) can0 1A0#00C0C65000000029
(1619555219.568843) can0 105#00000000000053AC
(1619555219.588879) can0 105#00010000000055A9
(1619555212.868862) can0 101#20000020798401C1
(1619555212.868862) can0 431#0000000000000000
(1619555212.868862) can0 1A0#00C0C65000000128
(1619555219.608895) can0 105#00010000000057A7
(1619555219.628939) can0 105#00000000000059A6
(1619555212.868862) can0 101#20000020798402C0
(1619555212.868862) can0 431#0000000000000000
(1619555212.868862) can0 1A0#00C0C65000000227
(1619555219.638975) can0 105#0000000000005AA5
(1619555212.868862) can0 101#20000020798403BF
(1619555212.868862) can0 431#0000000000000000
(1619555212.868862) can0 1A0#00C0C65000000326
(1619555219.658881) can0 105#0000000000005CA3
(1619555212.868862) can0 101#20000020798404BE
(1619555212.868862) can0 431#0000000000000000
(1619555212.868862) can0 1A0#00C0C65000000425
(1619555219.668899) can0 105#0000000000005DA2
(1619555219.688862) can0 105#0000000000005FA0
(1619555212.868862) can0 101#20000020798405BD
(1619555212.868862) can0 431#0000000000000000
(1619555212.868862) can0 1A0#00C0C65000000524
(1619555219.698941) can0 105#00000000000050AF
(1619555219.718878) can0 105#00000000000052AD
(1619555212.868862) can0 101#20000020798406BC
(1619555212.868862) can0 431#0000000000000000
(1619555212.868862) can0 1A0#00C0C65000000623
(1619555219.728833) can0 105#00000000000053AC
(1619555219.748962) can0 105#00000000000055AA
(1619555212.868862) can0 101#20000020798407BB
(1619555212.868862) can0 431#0000000000000000
(1619555212.868862) can0 1A0#00C0C65000000722
(1619555219.758845) can0 105#00000000000056A9
(1619555212.868862) can0 101#20000020798408BA
(1619555212.868862) can0 431#0000000000000000
(1619555212.868862) can0 1A0#00C0C65000000821
(1619555219.768870) can0 105#00000000000057A8
(1619555212.868862) can0 101#20000020798409B9
(1619555212.868862) can0 431#0000000000000000
(1619555212.868862) can0 1A0#00C0C65000000920
(1619555219.788888) can0 105#00010000000059A5
(1619555212.868862) can0 101#2000002079840AB8
(1619555212.868862) can0 431#0000000000000000
(1619555212.868862) can0 1A0#00C0C65000000A1F
(1619555219.808899) can0 105#0001000000005BA3
(1619555212.868862) can0 101#2000002079840BB7
(1619555212.868862) can0 431#0000000000000000
(1619555212.868862) can0 1A0#00C0C65000000B1E
(1619555219.819045) can0 105#0001000000005CA2
(1619555219.838881) can0 105#0000000000005EA1
(1619555212.868862) can0 101#2000002079840CB6
(1619555212.868862) can0 431#0000000000000000
(1619555212.868862) can0 1A0#00C0C65000000C1D
(1619555219.858866) can0 105#00010000000050AE
(1619555219.868872) can0 105#00010000000051AD
(1619555212.868862) can0 101#2000002079840DB5
(1619555212.868862) can0 431#0000000000000000
(1619555212.868862) can0 1A0#00C0C65000000D1C
(1619555219.879031) can0 105#00010000000052AC
(1619555212.868862) can0 101#2000002079840EB4
(1619555212.868862) can0 431#0000000000000000
(1619555212.868862) can0 1A0#00C0C65000000E1B
(1619555219.898899) can0 105#00010000000054AA
(1619555219.908844) can0 105#00010000000055A9
(1619555212.868862) can0 101#2000002079840FB3
(1619555212.868862) can0 431#0000000000000000
(1619555212.868862) can0 1A0#00C0C65000000F1A
(1619555219.938892) can0 105#00000000000058A7
(1619555212.868862) can0 101#20000020798400C2
(1619555212.868862) can0 431#0000000000000000
(1619555212.868862) can0 1A0#00C0C65000000029
(1619555219.948920) can0 105#00000000000059A6
(1619555212.868862) can0 101#20000020798401C1
(1619555212.868862) can0 431#0000000000000000
(1619555212.868862) can0 1A0#00C0C65000000128
(1619555219.968915) can0 105#0000000000005BA4
(1619555219.989041) can0 105#0000000000005DA2
(1619555212.868862) can0 101#20000020798402C0
(1619555212.868862) can0 431#0000000000000000
(1619555212.868862) can0 1A0#00C0C65000000227
(1619555219.998946) can0 105#0000000000005EA1
(1619555212.868862) can0 101#20000020798403BF
(1619555212.868862) can0 431#0000000000000000
(1619555212.868862) can0 1A0#00C0C65000000326
(1619555220.018909) can0 105#00000000000050AF
(1619555220.039023) can0 105#00000000000052AD
(1619555212.868862) can0 101#20000020798404BE
(1619555212.868862) can0 431#0000000000000000
(1619555212.868862) can0 1A0#00C0C65000000425
(1619555220.058906) can0 105#00010000000054AA
(1619555220.068922) can0 105#00010000000055A9
(1619555212.868862) can0 101#20000020798405BD
(1619555212.868862) can0 431#0000000000000000
(1619555212.868862) can0 1A0#00C0C65000000524
(1619555220.079049) can0 105#00010000000056A8
(1619555220.099019) can0 105#00000000000058A7
(1619555212.868862) can0 101#20000020798406BC
(1619555212.868862) can0 431#0000000000000000
(1619555212.868862) can0 1A0#00C0C65000000623
(1619555220.118959) can0 105#0001000000005AA4
(1619555220.138985) can0 105#0001000000005CA2
(1619555212.868862) can0 101#20000020798407BB
(1619555212.868862) can0 431#0000000000000000
(1619555212.868862) can0 1A0#00C0C65000000722
(1619555220.149069) can0 105#0001000000005DA1
(1619555220.168923) can0 105#0001000000005F9F
(1619555212.868862) can0 101#20000020798408BA
(1619555212.868862) can0 431#0000000000000000
(1619555212.868862) can0 1A0#00C0C65000000821
(1619555220.188865) can0 105#00000000000051AE
(1619555212.868862) can0 101#20000020798409B9
(1619555212.868862) can0 431#0000000000000000
(1619555212.868862) can0 1A0#00C0C65000000920
(1619555220.198928) can0 105#00000000000052AD
(1619555220.209072) can0 105#00000000000053AC
(1619555212.868862) can0 101#2000002079840AB8
(1619555212.868862) can0 431#0000000000000000
(1619555212.868862) can0 1A0#00C0C65000000A1F
(1619555220.228961) can0 105#00000000000055AA
(1619555220.238920) can0 105#00000000000056A9
(1619555212.868862) can0 101#2000002079840BB7
(1619555212.868862) can0 431#0000000000000000
(1619555212.868862) can0 1A0#00C0C65000000B1E
(1619555220.259064) can0 105#00000000000058A7
(1619555220.278927) can0 105#0000000000005AA5
(1619555212.868862) can0 101#2000002079840CB6
(1619555212.868862) can0 431#0000000000000000
(1619555212.868862) can0 1A0#00C0C65000000C1D
(1619555220.298894) can0 105#0000000000005CA3
(1619555220.308910) can0 105#0000000000005DA2
(1619555212.868862) can0 101#2000002079840DB5
(1619555212.868862) can0 431#0000000000000000
(1619555212.868862) can0 1A0#00C0C65000000D1C
(1619555220.319033) can0 105#0000000000005EA1
(1619555220.339040) can0 105#00000000000050AF
(1619555212.868862) can0 101#2000002079840EB4
(1619555212.868862) can0 431#0000000000000000
(1619555212.868862) can0 1A0#00C0C65000000E1B
(1619555220.348938) can0 105#00000000000051AE
(1619555220.359020) can0 105#00000000000052AD
(1619555212.868862) can0 101#2000002079840FB3
(1619555212.868862) can0 431#0000000000000000
(1619555212.868862) can0 1A0#00C0C65000000F1A
(1619555220.378942) can0 105#00000000000054AB
(1619555212.868862) can0 101#00000020798400E2
(1619555212.868862) can0 431#0000000000000000
(1619555212.868862) can0 1A0#00C0C65000000029
(1619555220.398970) can0 105#00000000000056A9
(1619555220.418879) can0 105#00000000000058A7
(1619555212.868862) can0 101#00000020798401E1
(1619555212.868862) can0 431#0000000000000000
(1619555212.868862) can0 1A0#00C0C65000000128
(1619555220.428904) can0 105#00000000000059A6
(1619555220.439025) can0 105#0000000000005AA5
(1619555212.868862) can0 101#00000020798402E0
(1619555212.868862) can0 431#0000000000000000
(1619555212.868862) can0 1A0#00C0C65000000227
(1619555220.458911) can0 105#0000000000005CA3
(1619555220.478952) can0 105#0001000000005EA0
(1619555212.868862) can0 101#00000020798403DF
(1619555212.868862) can0 431#0000000000000000
(1619555212.868862) can0 1A0#00C0C65000000326
(1619555220.488950) can0 105#0001000000005F9F
(1619555220.498867) can0 105#00010000000050AE
(1619555212.868862) can0 101#00000020798404DE
(1619555212.868862) can0 431#0000000000000000
(1619555212.868862) can0 1A0#00C0C65000000425
(1619555220.519013) can0 105#00000000000052AD
(1619555220.538937) can0 105#00000000000054AB
(1619555212.868862) can0 101#00000020798405DD
(1619555212.868862) can0 431#0000000000000000
(1619555212.868862) can0 1A0#00C0C65000000524
(1619555220.559145) can0 105#00000000000056A9
(1619555220.568970) can0 105#00000000000057A8
(1619555212.868862) can0 101#00000020798406DC
(1619555212.868862) can0 431#0000000000000000
(1619555212.868862) can0 1A0#00C0C65000000623
(1619555220.588979) can0 105#00000000000059A6
(1619555220.608954) can0 105#0000000000005BA4
(1619555212.868862) can0 101#00000020798407DB
(1619555212.868862) can0 431#0000000000000000
(1619555212.868862) can0 1A0#00C0C65000000722
(1619555220.629016) can0 105#0000000000005DA2
(1619555220.638991) can0 105#0000000000085E99
(1619555212.868862) can0 101#00000020798408DA
(1619555212.868862) can0 431#0000000000000000
(1619555212.868862) can0 1A0#00C0C65000000821
(1619555220.658998) can0 105#00000000000850A7
(1619555220.668990) can0 105#00000000000851A6
(1619555212.868862) can0 101#00000020798409D9
(1619555212.868862) can0 431#0000000000000000
(1619555212.868862) can0 1A0#00C0C65000000920
(1619555220.689038) can0 105#00000000000853A4
(1619555220.708915) can0 105#00000000000855A2
(1619555212.868862) can0 101#0000002079840AD8
(1619555212.868862) can0 431#0000000000000000
(1619555212.868862) can0 1A0#00C0C65000000A1F
(1619555220.728941) can0 105#00000000000857A0
(1619555220.738959) can0 105#000000000008589F
(1619555212.868862) can0 101#0000002079840BD7
(1619555212.868862) can0 431#0000000000000000
(1619555212.868862) can0 1A0#00C0C65000000B1E
(1619555220.749099) can0 105#000000000008599E
(1619555220.769042) can0 105#0000000000085B9C
(1619555212.868862) can0 101#0000002079840CD6
(1619555212.868862) can0 431#0000000000000000
(1619555212.868862) can0 1A0#00C0C65000000C1D
(1619555220.788964) can0 105#0000000000085D9A
(1619555212.868862) can0 101#0000002079840DD5
(1619555212.868862) can0 431#0000000000000000
(1619555212.868862) can0 1A0#00C0C65000000D1C
(1619555220.808971) can0 105#0000000000085F98
(1619555220.819042) can0 105#00000000000850A7
(1619555212.868862) can0 101#0000002079840ED4
(1619555212.868862) can0 431#0000000000000000
(1619555212.868862) can0 1A0#00C0C65000000E1B
(1619555220.838948) can0 105#00000000000852A5
(1619555220.858940) can0 105#00000000000854A3
(1619555212.868862) can0 101#0000002079840FD3
(1619555212.868862) can0 431#0000000000000000
(1619555212.868862) can0 1A0#00C0C65000000F1A
(1619555220.879029) can0 105#00000000000856A1
